Sample in Buffer,Sample in Window,TRIGGER,freq_1[15:0],debug_1[15:0]
Radix - UNSIGNED,UNSIGNED,UNSIGNED,UNSIGNED,UNSIGNED
0,0,0,1829,65033
1,1,0,1951,65033
2,2,0,2072,60121
3,3,0,2196,60121
4,4,0,2319,60121
5,5,0,2439,60121
6,6,0,2562,60121
7,7,0,2616,59618
8,8,0,2738,59618
9,9,0,2865,59618
10,10,0,3048,59618
11,11,0,3172,59618
12,12,0,3226,54203
13,13,0,3417,54203
14,14,0,3539,54203
15,15,0,3592,54203
16,16,0,3714,54203
17,17,0,3904,48285
18,18,0,4027,48285
19,19,0,4148,48285
20,20,0,4270,48285
21,21,0,4392,48285
22,22,0,4514,36952
23,23,0,4633,36952
24,24,0,4752,36952
25,25,0,4880,36952
26,26,0,5002,36952
27,27,0,5125,19701
28,28,0,5247,19701
29,29,0,5368,19701
30,30,0,5426,19701
31,31,0,5612,19701
32,32,0,5666,56653
33,33,0,5793,56653
34,34,0,5912,56653
35,35,0,6100,56653
36,36,0,6155,56653
37,37,0,6344,10818
38,38,0,6467,10818
39,39,0,6588,10818
40,40,0,6710,10818
41,41,0,6832,10818
42,42,0,6955,1935
43,43,0,7073,1935
44,44,0,7192,1935
45,45,0,7320,1935
46,46,0,7443,1935
47,47,0,7565,12753
48,48,0,7687,12753
49,49,0,7810,12753
50,50,0,7866,12753
51,51,0,8053,12753
52,52,0,8106,14688
53,53,0,41,14688
54,54,0,160,14688
55,55,0,280,14688
56,56,0,402,14688
57,57,0,593,27441
58,58,0,8907,27441
59,59,0,9028,27441
60,60,0,9150,27441
61,61,0,9272,27441
62,62,0,1202,42129
63,63,0,1321,42129
64,64,0,1440,42129
65,65,0,1584,42129
66,66,0,9883,42129
67,67,0,10005,4034
68,68,0,10127,4034
69,69,0,10248,4034
70,70,0,10370,4034
71,71,0,10492,4034
72,72,0,2354,46163
73,73,0,10737,46163
74,74,0,10859,46163
75,75,0,2720,46163
76,76,0,11102,46163
77,77,0,2968,50197
78,78,0,3154,50197
79,79,0,11469,50197
80,80,0,3329,50197
81,81,0,3516,50197
82,82,0,3641,30824
83,83,0,3760,30824
84,84,0,3882,30824
85,85,0,4003,30824
86,86,0,0,30824
87,87,0,120,15485
88,88,0,179,15485
89,89,0,364,15485
90,90,0,486,15485
91,91,0,544,15485
92,92,0,730,46309
93,93,0,853,46309
94,94,0,972,46309
95,95,0,1024,46309
96,96,0,1154,46309
97,97,0,1340,61794
98,98,0,1458,61794
99,99,0,1585,61794
100,100,0,1704,61794
101,101,0,1824,61794
102,102,0,1946,42567
103,103,0,2073,42567
104,104,0,2193,42567
105,105,0,2312,42567
106,106,0,2434,42567
107,107,0,2560,38825
108,108,0,2619,38825
109,109,0,2804,38825
110,110,0,2924,38825
111,111,0,3048,38825
112,112,0,3170,15856
113,113,0,3293,15856
114,114,0,3412,15856
115,115,0,3528,15856
116,116,0,3658,15856
117,117,0,3780,54681
118,118,0,3899,54681
119,119,0,4025,54681
120,120,0,4144,54681
121,121,0,4264,54681
122,122,0,4386,5001
123,123,0,4513,5001
124,124,0,4632,5001
125,125,0,4752,5001
126,126,0,4875,5001
127,127,0,5001,59682
128,128,0,5123,59682
129,129,0,5246,59682
130,130,0,5298,59682
131,131,0,5489,59682
132,132,0,5611,64683
133,133,0,5665,64683
134,134,0,5784,64683
135,135,0,5976,64683
136,136,0,6035,64683
137,137,0,6221,58829
138,138,0,6343,58829
139,139,0,6464,58829
140,140,0,6586,58829
141,141,0,6708,58829
142,142,0,6830,57976
143,143,0,6952,57976
144,144,0,7075,57976
145,145,0,7195,57976
146,146,0,7316,57976
147,147,0,7432,51269
148,148,0,7562,51269
149,149,0,7685,51269
150,150,0,7737,51269
151,151,0,7924,51269
152,152,0,8048,43709
153,153,0,8172,43709
154,154,0,8227,43709
155,155,0,8415,43709
156,156,0,280,43709
157,157,0,8659,29442
158,158,0,520,29442
159,159,0,648,29442
160,160,0,9024,29442
161,161,0,954,29442
162,162,0,9268,7615
163,163,0,1194,7615
164,164,0,1321,7615
165,165,0,9632,7615
166,166,0,1560,7615
167,167,0,9876,37057
168,168,0,1792,37057
169,169,0,1930,37057
170,170,0,10243,37057
171,171,0,2105,37057
172,172,0,10487,44672
173,173,0,10608,44672
174,174,0,2472,44672
175,175,0,10784,44672
176,176,0,2714,44672
177,177,0,2841,16193
178,178,0,11219,16193
179,179,0,11340,16193
180,180,0,11462,16193
181,181,0,11584,16193
182,182,0,3514,60865
183,183,0,3633,60865
184,184,0,11948,60865
185,185,0,3876,60865
186,186,0,4002,60865
187,187,0,0,11522
188,188,0,56,11522
189,189,0,178,11522
190,190,0,363,11522
191,191,0,417,11522
192,192,0,607,6851
193,193,0,728,6851
194,194,0,852,6851
195,195,0,972,6851
196,196,0,1095,6851
197,197,0,1153,18373
198,198,0,1339,18373
199,199,0,1460,18373
200,200,0,1582,18373
201,201,0,1704,18373
202,202,0,1826,25224
203,203,0,1945,25224
204,204,0,2068,25224
205,205,0,2188,25224
206,206,0,2312,25224
207,207,0,2436,43597
208,208,0,2490,43597
209,209,0,2617,43597
210,210,0,2800,43597
211,211,0,2856,43597
212,212,0,3046,3285
213,213,0,3168,3285
214,214,0,3291,3285
215,215,0,3408,3285
216,216,0,3534,3285
217,217,0,3584,46882
218,218,0,3778,46882
219,219,0,3901,46882
220,220,0,4017,46882
221,221,0,4141,46882
222,222,0,4264,50167
223,223,0,4384,50167
224,224,0,4506,50167
225,225,0,4631,50167
226,226,0,4753,50167
227,227,0,4875,31513
228,228,0,4992,31513
229,229,0,4880,31513
230,230,0,5240,31513
231,231,0,5363,31513
232,232,0,5485,16144
233,233,0,5605,16144
234,234,0,5730,16144
235,235,0,5850,16144
236,236,0,5973,16144
237,237,0,6095,47657
238,238,0,6153,47657
239,239,0,6272,47657
240,240,0,6460,47657
241,241,0,6579,47657
242,242,0,6705,63801
243,243,0,6824,63801
244,244,0,6950,63801
245,245,0,7066,63801
246,246,0,7193,63801
247,247,0,7315,45922
248,248,0,7433,45922
249,249,0,7560,45922
250,250,0,7680,45922
251,251,0,7803,45922
252,252,0,7925,44187
253,253,0,8045,44187
254,254,0,8168,44187
255,255,0,34,44187
256,256,0,8412,44187
257,257,0,274,24573
258,258,0,465,24573
259,259,0,8776,24573
260,260,0,640,24573
261,261,0,9022,24573
262,262,0,944,3224
263,263,0,1074,3224
264,264,0,9388,3224
265,265,0,1313,3224
266,266,0,9631,3224
267,267,0,1561,27797
268,268,0,1680,27797
269,269,0,1802,27797
270,270,0,10115,27797
271,271,0,2049,27797
272,272,0,10363,31021
273,273,0,10484,31021
274,274,0,10608,31021
275,275,0,2537,31021
276,276,0,10851,31021
277,277,0,2713,58818
278,278,0,11095,58818
279,279,0,11218,58818
280,280,0,3082,58818
281,281,0,11460,58818
282,282,0,3387,24303
283,283,0,3513,24303
284,284,0,3632,24303
285,285,0,11948,24303
286,286,0,3874,24303
287,287,0,12192,17585
288,288,0,0,17585
289,289,0,120,17585
290,290,0,241,17585
291,291,0,360,17585
292,292,0,417,41888
293,293,0,536,41888
294,294,0,666,41888
295,295,0,787,41888
296,296,0,905,41888
297,297,0,1024,59473
298,298,0,1218,59473
299,299,0,1341,59473
300,300,0,1457,59473
301,301,0,1581,59473
302,302,0,1704,35825
303,303,0,1828,35825
304,304,0,1951,35825
305,305,0,2071,35825
306,306,0,2194,35825
307,307,0,2316,29762
308,308,0,2434,29762
309,309,0,2561,29762
310,310,0,2680,29762
311,311,0,2736,29762
312,312,0,2926,51
313,313,0,3048,51
314,314,0,3107,51
315,315,0,3288,51
316,316,0,3412,51
317,317,0,3472,29813
318,318,0,3594,29813
319,319,0,3713,29813
320,320,0,3900,29813
321,321,0,4024,29813
322,322,0,4146,29864
323,323,0,4268,29864
324,324,0,4391,29864
325,325,0,4504,29864
326,326,0,4634,29864
327,327,0,4756,59677
328,328,0,4879,59677
329,329,0,5000,59677
330,330,0,5122,59677
331,331,0,5244,59677
332,332,0,5298,24005
333,333,0,5425,24005
334,334,0,5544,24005
335,335,0,5664,24005
336,336,0,5787,24005
337,337,0,5976,18146
338,338,0,6099,18146
339,339,0,6220,18146
340,340,0,6342,18146
341,341,0,6464,18146
342,342,0,6587,42151
343,343,0,6705,42151
344,344,0,6824,42151
345,345,0,6953,42151
346,346,0,7075,42151
347,347,0,7193,60297
348,348,0,7316,60297
349,349,0,7442,60297
350,350,0,7562,60297
351,351,0,7681,60297
352,352,0,7807,36912
353,353,0,7928,36912
354,354,0,8052,36912
355,355,0,8105,36912
356,356,0,8293,36912
357,357,0,8416,31673
358,358,0,280,31673
359,359,0,8663,31673
360,360,0,8780,31673
361,361,0,8904,31673
362,362,0,768,3049
363,363,0,954,3049
364,364,0,1081,3049
365,365,0,9392,3049
366,366,0,9516,3049
367,367,0,9638,34722
368,368,0,9760,34722
369,369,0,9883,34722
370,370,0,10000,34722
371,371,0,10126,34722
372,372,0,2056,37771
373,373,0,2178,37771
374,374,0,2233,37771
375,375,0,10612,37771
376,376,0,2480,37771
377,377,0,2602,6957
378,378,0,10981,6957
379,379,0,11100,6957
380,380,0,2960,6957
381,381,0,3090,6957
382,382,0,3208,44728
383,383,0,11523,44728
384,384,0,11712,44728
385,385,0,11832,44728
386,386,0,11956,44728
387,387,0,3882,51685
388,388,0,12200,51685
389,389,0,0,51685
390,390,0,119,51685
391,391,0,177,51685
392,392,0,363,30877
393,393,0,484,30877
394,394,0,608,30877
395,395,0,665,30877
396,396,0,848,30877
397,397,0,905,17026
398,398,0,1024,17026
399,399,0,1154,17026
400,400,0,1339,17026
401,401,0,1457,17026
402,402,0,1576,47903
403,403,0,1706,47903
404,404,0,1825,47903
405,405,0,1948,47903
406,406,0,2064,47903
407,407,0,2194,64929
408,408,0,2316,64929
409,409,0,2439,64929
410,410,0,2556,64929
411,411,0,2682,64929
412,412,0,2736,47296
413,413,0,2859,47296
414,414,0,2984,47296
415,415,0,3168,47296
416,416,0,3292,47296
417,417,0,3347,46689
418,418,0,3473,46689
419,419,0,3592,46689
420,420,0,3780,46689
421,421,0,3903,46689
422,422,0,4025,28449
423,423,0,4144,28449
424,424,0,4267,28449
425,425,0,4391,28449
426,426,0,4514,28449
427,427,0,4636,9602
428,428,0,4754,9602
429,429,0,4880,9602
430,430,0,5002,9602
431,431,0,5124,9602
432,432,0,5178,38051
433,433,0,5305,38051
434,434,0,5424,38051
435,435,0,5612,38051
436,436,0,5667,38051
437,437,0,5793,47653
438,438,0,5979,47653
439,439,0,6102,47653
440,440,0,6154,47653
441,441,0,6281,47653
442,442,0,6467,20168
443,443,0,6588,20168
444,444,0,6712,20168
445,445,0,6833,20168
446,446,0,6955,20168
447,447,0,7076,2285
448,448,0,7192,2285
449,449,0,7323,2285
450,450,0,7441,2285
451,451,0,7564,2285
452,452,0,7680,22453
453,453,0,7810,22453
454,454,0,7865,22453
455,455,0,7984,22453
456,456,0,8104,22453
457,457,0,8296,24738
458,458,0,160,24738
459,459,0,8475,24738
460,460,0,8663,24738
461,461,0,528,24738
462,462,0,648,47191
463,463,0,9028,47191
464,464,0,9152,47191
465,465,0,1081,47191
466,466,0,9392,47191
467,467,0,1320,6393
468,468,0,1440,6393
469,469,0,1570,6393
470,470,0,1691,6393
471,471,0,1809,6393
472,472,0,10127,53584
473,473,0,10248,53584
474,474,0,10372,53584
475,475,0,10492,53584
476,476,0,2355,53584
477,477,0,2481,59977
478,478,0,10856,59977
479,479,0,10982,59977
480,480,0,2842,59977
481,481,0,11225,59977
482,482,0,11347,48025
483,483,0,11468,48025
484,484,0,3336,48025
485,485,0,11712,48025
486,486,0,11835,48025
487,487,0,3761,42466
488,488,0,12079,42466
489,489,0,12202,42466
490,490,0,0,42466
491,491,0,120,42466
492,492,0,178,24955
493,493,0,297,24955
494,494,0,484,24955
495,495,0,608,24955
496,496,0,666,24955
497,497,0,853,1885
498,498,0,975,1885
499,499,0,1096,1885
500,500,0,1154,1885
501,501,0,1341,1885
502,502,0,1459,26840
503,503,0,1585,26840
504,504,0,1704,26840
505,505,0,1828,26840
506,506,0,1947,26840
507,507,0,2073,28725
508,508,0,2192,28725
509,509,0,2318,28725
510,510,0,2439,28725
511,511,0,2561,28725
512,512,0,2683,55565
513,513,0,2806,55565
514,514,0,2928,55565
515,515,0,2985,55565
516,516,0,3168,55565
517,517,0,3225,18754
518,518,0,3344,18754
519,519,0,3474,18754
520,520,0,3595,18754
521,521,0,3713,18754
522,522,0,3896,8783
523,523,0,4024,8783
524,524,0,4149,8783
525,525,0,4265,8783
526,526,0,4389,8783
527,527,0,4512,27537
528,528,0,4632,27537
529,529,0,4754,27537
530,530,0,4879,27537
531,531,0,5002,27537
532,532,0,5120,36320
533,533,0,5246,36320
534,534,0,5369,36320
535,535,0,5425,36320
536,536,0,5544,36320
537,537,0,5666,63857
538,538,0,5856,63857
539,539,0,5976,63857
540,540,0,6032,63857
541,541,0,6154,63857
542,542,0,6345,34641
543,543,0,6464,34641
544,544,0,6590,34641
545,545,0,6706,34641
546,546,0,6833,34641
547,547,0,6953,32962
548,548,0,7076,32962
549,549,0,7200,32962
550,550,0,7321,32962
551,551,0,7443,32962
552,552,0,7561,2067
553,553,0,7680,2067
554,554,0,7810,2067
555,555,0,7867,2067
556,556,0,7985,2067
557,557,0,8104,35029
558,558,0,8296,35029
559,559,0,8420,35029
560,560,0,281,35029
561,561,0,8663,35029
562,562,0,593,37096
563,563,0,8905,37096
564,564,0,9030,37096
565,565,0,954,37096
566,566,0,9273,37096
567,567,0,9395,6589
568,568,0,1321,6589
569,569,0,1440,6589
570,570,0,9760,6589
571,571,0,1690,6589
572,572,0,10004,43685
573,573,0,10127,43685
574,574,0,2057,43685
575,575,0,10368,43685
576,576,0,10492,43685
577,577,0,10612,50274
578,578,0,10736,50274
579,579,0,10859,50274
580,580,0,10979,50274
581,581,0,11032,50274
582,582,0,2960,28423
583,583,0,11346,28423
584,584,0,11468,28423
585,585,0,3329,28423
586,586,0,11709,28423
587,587,0,11832,13161
588,588,0,3760,13161
589,589,0,3883,13161
590,590,0,12199,13161
591,591,0,0,13161
592,592,0,48,41584
593,593,0,178,41584
594,594,0,297,41584
595,595,0,417,41584
596,596,0,536,41584
597,597,0,730,54745
598,598,0,852,54745
599,599,0,975,54745
600,600,0,1092,54745
601,601,0,1216,54745
602,602,0,1336,30793
603,603,0,1458,30793
604,604,0,1585,30793
605,605,0,1704,30793
606,606,0,1824,30793
607,607,0,1950,20002
608,608,0,2072,20002
609,609,0,2195,20002
610,610,0,2312,20002
611,611,0,2438,20002
612,612,0,2816,50795
613,613,0,2618,50795
614,614,0,2737,50795
615,615,0,2924,50795
616,616,0,2976,50795
617,617,0,3170,5261
618,618,0,3292,5261
619,619,0,3415,5261
620,620,0,3532,5261
621,621,0,3658,5261
622,622,0,3712,56056
623,623,0,3902,56056
624,624,0,4025,56056
625,625,0,4145,56056
626,626,0,4264,56056
627,627,0,4388,61317
628,628,0,4504,61317
629,629,0,4634,61317
630,630,0,4755,61317
631,631,0,4872,61317
632,632,0,4999,51837
633,633,0,5122,51837
634,634,0,5244,51837
635,635,0,5297,51837
636,636,0,5484,51837
637,637,0,5545,47618
638,638,0,5664,47618
639,639,0,5786,47618
640,640,0,5975,47618
641,641,0,6033,47618
642,642,0,6219,33919
643,643,0,6340,33919
644,644,0,6464,33919
645,645,0,6585,33919
646,646,0,6707,33919
647,647,0,6825,16001
648,648,0,6948,16001
649,649,0,7074,16001
650,650,0,7194,16001
651,651,0,7317,16001
652,652,0,7435,49920
653,653,0,7560,49920
654,654,0,7680,49920
655,655,0,7804,49920
656,656,0,7859,49920
657,657,0,7985,385
658,658,0,8104,385
659,659,0,34,385
660,660,0,154,385
661,661,0,281,385
662,662,0,8659,50305
663,663,0,8780,50305
664,664,0,8904,50305
665,665,0,9024,50305
666,666,0,9147,50305
667,667,0,1073,50690
668,668,0,1196,50690
669,669,0,1322,50690
670,670,0,1442,50690
671,671,0,9757,50690
672,672,0,9879,35459
673,673,0,10000,35459
674,674,0,10124,35459
675,675,0,10245,35459
676,676,0,10367,35459
677,677,0,2233,20613
678,678,0,10608,20613
679,679,0,2474,20613
680,680,0,2594,20613
681,681,0,2721,20613
682,682,0,11035,56072
683,683,0,2961,56072
684,684,0,3072,56072
685,685,0,11400,56072
686,686,0,3330,56072
687,687,0,11709,11149
688,688,0,11831,11149
689,689,0,11952,11149
690,690,0,3882,11149
691,691,0,12196,11149
692,692,0,0,1685
693,693,0,121,1685
694,694,0,243,1685
695,695,0,360,1685
696,696,0,486,1685
697,697,0,560,12834
698,698,0,666,12834
699,699,0,785,12834
700,700,0,972,12834
701,701,0,1032,12834
702,702,0,1155,14519
703,703,0,1341,14519
704,704,0,1456,14519
705,705,0,1584,14519
706,706,0,1707,14519
707,707,0,1829,27353
708,708,0,1951,27353
709,709,0,2072,27353
710,710,0,2194,27353
711,711,0,2313,27353
712,712,0,2435,41872
713,713,0,2560,41872
714,714,0,2616,41872
715,715,0,2804,41872
716,716,0,2858,41872
717,717,0,2985,3689
718,718,0,3168,3689
719,719,0,3290,3689
720,720,0,3415,3689
721,721,0,3473,3689
722,722,0,3656,45561
723,723,0,3782,45561
724,724,0,3905,45561
725,725,0,4025,45561
726,726,0,4144,45561
727,727,0,4268,49250
728,728,0,4392,49250
729,729,0,4515,49250
730,730,0,4635,49250
731,731,0,4752,49250
732,732,0,4876,29275
733,733,0,5002,29275
734,734,0,5124,29275
735,735,0,5177,29275
736,736,0,5360,29275
737,737,0,5488,12989
738,738,0,5544,12989
739,739,0,5667,12989
740,740,0,5855,12989
741,741,0,5976,12989
742,742,0,6096,42264
743,743,0,6222,42264
744,744,0,6345,42264
745,745,0,6401,42264
746,746,0,6584,42264
747,747,0,6708,55253
748,748,0,6816,55253
749,749,0,6955,55253
750,750,0,7075,55253
751,751,0,7192,55253
752,752,0,7317,31981
753,753,0,7442,31981
754,754,0,7564,31981
755,755,0,7681,31981
756,756,0,7804,31981
757,757,0,7864,21698
758,758,0,7984,21698
759,759,0,8106,21698
760,760,0,8295,21698
761,761,0,161,21698
762,762,0,8536,53679
763,763,0,8660,53679
764,764,0,8784,53679
765,765,0,649,53679
766,766,0,9027,53679
767,767,0,953,9841
768,768,0,9269,9841
769,769,0,9394,9841
770,770,0,1322,9841
771,771,0,9637,9841
772,772,0,1566,63520
773,773,0,1689,63520
774,774,0,10001,63520
775,775,0,1928,63520
776,776,0,10246,63520
777,777,0,10368,7825
778,778,0,2234,7825
779,779,0,2353,7825
780,780,0,10732,7825
781,781,0,2592,7825
782,782,0,10976,5809
783,783,0,11100,5809
784,784,0,2963,5809
785,785,0,11343,5809
786,786,0,11464,5809
787,787,0,3328,13634
788,788,0,11710,13634
789,789,0,11833,13634
790,790,0,3761,13634
791,791,0,12072,13634
792,792,0,12196,19443
793,793,0,0,19443
794,794,0,57,19443
795,795,0,177,19443
796,796,0,296,19443
797,797,0,486,33077
798,798,0,544,33077
799,799,0,731,33077
800,800,0,848,33077
801,801,0,972,33077
802,802,0,1092,52520
803,803,0,1218,52520
804,804,0,1337,52520
805,805,0,1457,52520
806,806,0,1576,52520
807,807,0,1706,20061
808,808,0,1828,20061
809,809,0,1948,20061
810,810,0,2072,20061
811,811,0,2194,20061
812,812,0,2316,7045
813,813,0,2439,7045
814,814,0,2560,7045
815,815,0,2618,7045
816,816,0,2805,7045
817,817,0,2858,27106
818,818,0,2985,27106
819,819,0,3104,27106
820,820,0,3224,27106
821,821,0,3346,27106
822,822,0,3537,34151
823,823,0,3659,34151
824,824,0,3780,34151
825,825,0,3898,34151
826,826,0,4025,34151
827,827,0,4147,61257
828,828,0,4265,61257
829,829,0,4392,61257
830,830,0,4512,61257
831,831,0,4635,61257
832,832,0,4757,29872
833,833,0,4877,29872
834,834,0,5002,29872
835,835,0,5122,29872
836,836,0,5245,29872
837,837,0,5367,25593
838,838,0,5488,25593
839,839,0,5612,25593
840,840,0,5665,25593
841,841,0,5855,25593
842,842,0,5976,55465
843,843,0,6100,55465
844,844,0,6155,55465
845,845,0,6343,55465
846,846,0,6464,55465
847,847,0,6584,15522
848,848,0,6710,15522
849,849,0,6833,15522
850,850,0,6952,15522
851,851,0,7072,15522
852,852,0,7198,5451
853,853,0,7321,5451
854,854,0,7441,5451
855,855,0,7560,5451
856,856,0,7682,5451
857,857,0,7809,20973
858,858,0,7931,20973
859,859,0,8054,20973
860,860,0,8106,20973
861,861,0,41,20973
862,862,0,163,26424
863,863,0,281,26424
864,864,0,408,26424
865,865,0,8784,26424
866,866,0,651,26424
867,867,0,837,47397
868,868,0,9151,47397
869,869,0,9272,47397
870,870,0,1202,47397
871,871,0,9516,47397
872,872,0,1442,8285
873,873,0,1569,8285
874,874,0,1688,8285
875,875,0,10004,8285
876,876,0,10127,8285
877,877,0,10249,55682
878,878,0,10371,55682
879,879,0,10494,55682
880,880,0,2422,55682
881,881,0,10736,55682
882,882,0,10795,63967
883,883,0,2721,63967
884,884,0,2840,63967
885,885,0,11224,63967
886,886,0,3090,63967
887,887,0,11468,54113
888,888,0,3331,54113
889,889,0,3457,54113
890,890,0,11832,54113
891,891,0,11956,54113
892,892,0,12078,52544
893,893,0,12201,52544
894,894,0,0,52544
895,895,0,50,52544
896,896,0,241,52544
897,897,0,360,41121
898,898,0,484,41121
899,899,0,608,41121
900,900,0,665,41121
901,901,0,784,41121
902,902,0,972,28129
903,903,0,1096,28129
904,904,0,1219,28129
905,905,0,1336,28129
906,906,0,1458,28129
907,907,0,1584,3714
908,908,0,1707,3714
909,909,0,1828,3714
910,910,0,1950,3714
911,911,0,2072,3714
912,912,0,2195,31843
913,913,0,2316,31843
914,914,0,2440,31843
915,915,0,2561,31843
916,916,0,2683,31843
917,917,0,2804,35557
918,918,0,2856,35557
919,919,0,2986,35557
920,920,0,3171,35557
921,921,0,3292,35557
922,922,0,3413,1864
923,923,0,3538,1864
924,924,0,3661,1864
925,925,0,3713,1864
926,926,0,3896,1864
927,927,0,4026,37421
928,928,0,4148,37421
929,929,0,4271,37421
930,930,0,4392,37421
931,931,0,4514,37421
932,932,0,4636,39285
933,933,0,4759,39285
934,934,0,4882,39285
935,935,0,5002,39285
936,936,0,5121,39285
937,937,0,5247,11170
938,938,0,5368,11170
939,939,0,5492,11170
940,940,0,5545,11170
941,941,0,5732,11170
942,942,0,5856,50455
943,943,0,5912,50455
944,944,0,6035,50455
945,945,0,6220,50455
946,946,0,6346,50455
947,947,0,6468,61625
948,948,0,6586,61625
949,949,0,6712,61625
950,950,0,6834,61625
951,951,0,6956,61625
952,952,0,7074,46544
953,953,0,7201,46544
954,954,0,7320,46544
955,955,0,7444,46544
956,956,0,7563,46544
957,957,0,7689,42633
958,958,0,7808,42633
959,959,0,7866,42633
960,960,0,8055,42633
961,961,0,8113,42633
962,962,0,104,23641
963,963,0,162,23641
964,964,0,353,23641
965,965,0,409,23641
