Sample in Buffer,Sample in Window,TRIGGER,freq_1[15:0],debug_1[15:0]
Radix - UNSIGNED,UNSIGNED,UNSIGNED,UNSIGNED,UNSIGNED
0,0,0,48890,27391
1,1,0,61256,27391
2,2,0,65502,34561
3,3,0,45018,34561
4,4,0,48936,34561
5,5,0,49083,34561
6,6,0,60110,34561
7,7,0,60379,61952
8,8,0,65212,61952
9,9,0,60270,61952
10,10,0,64060,61952
11,11,0,65275,61952
12,12,0,60409,30977
13,13,0,65226,30977
14,14,0,65467,30977
15,15,0,61010,30977
16,16,0,60396,30977
17,17,0,48123,27393
18,18,0,44750,27393
19,19,0,64459,27393
20,20,0,60090,27393
21,21,0,49005,27393
22,22,0,64489,58370
23,23,0,44798,58370
24,24,0,61433,58370
25,25,0,65244,58370
26,26,0,61403,58370
27,27,0,61421,20227
28,28,0,65384,20227
29,29,0,65499,20227
30,30,0,65266,20227
31,31,0,65100,20227
32,32,0,49115,13061
33,33,0,65497,13061
34,34,0,65343,13061
35,35,0,65498,13061
36,36,0,65529,13061
37,37,0,60233,33288
38,38,0,61407,33288
39,39,0,65305,33288
40,40,0,65342,33288
41,41,0,65242,33288
42,42,0,65357,46349
43,43,0,65055,46349
44,44,0,65211,46349
45,45,0,65325,46349
46,46,0,44841,46349
47,47,0,65403,14101
48,48,0,61390,14101
49,49,0,65503,14101
50,50,0,65243,14101
51,51,0,48989,14101
52,52,0,61417,60450
53,53,0,45054,60450
54,54,0,47998,60450
55,55,0,65372,60450
56,56,0,65211,60450
57,57,0,65305,9015
58,58,0,65064,9015
59,59,0,0,9015
60,60,0,2590,9015
61,61,0,2960,9015
62,62,0,3830,3929
63,63,0,2639,3929
64,64,0,3969,3929
65,65,0,7894,3929
66,66,0,32671,3929
67,67,0,60998,12944
68,68,0,61340,12944
69,69,0,61354,12944
70,70,0,64326,12944
71,71,0,43685,12944
72,72,0,47759,16873
73,73,0,48946,16873
74,74,0,65419,16873
75,75,0,60415,16873
76,76,0,64209,16873
77,77,0,64427,29817
78,78,0,43521,29817
79,79,0,47698,29817
80,80,0,64091,29817
81,81,0,47810,29817
82,82,0,64087,46690
83,83,0,65294,46690
84,84,0,65408,46690
85,85,0,65141,46690
86,86,0,43612,46690
87,87,0,60306,10971
88,88,0,59987,10971
89,89,0,60413,10971
90,90,0,61296,10971
91,91,0,61398,10971
92,92,0,60125,57661
93,93,0,64291,57661
94,94,0,65255,57661
95,95,0,60366,57661
96,96,0,61267,57661
97,97,0,61111,3096
98,98,0,61406,3096
99,99,0,61088,3096
100,100,0,61251,3096
101,101,0,44013,3096
102,102,0,65523,60757
103,103,0,65526,60757
104,104,0,64030,60757
105,105,0,65427,60757
106,106,0,65319,60757
107,107,0,65471,63853
108,108,0,65521,63853
109,109,0,60381,63853
110,110,0,60287,63853
111,111,0,65206,63853
112,112,0,61302,59074
113,113,0,44991,59074
114,114,0,60113,59074
115,115,0,60343,59074
116,116,0,47838,59074
117,117,0,47776,57391
118,118,0,64093,57391
119,119,0,47695,57391
120,120,0,60982,57391
121,121,0,60414,57391
122,122,0,44654,50929
123,123,0,43621,50929
124,124,0,65117,50929
125,125,0,65230,50929
126,126,0,64273,50929
127,127,0,64351,42784
128,128,0,65458,42784
129,129,0,44837,42784
130,130,0,47736,42784
131,131,0,44831,42784
132,132,0,48101,28177
133,133,0,65500,28177
134,134,0,65231,28177
135,135,0,65363,28177
136,136,0,45037,28177
137,137,0,44719,5425
138,138,0,60950,5425
139,139,0,61052,5425
140,140,0,60271,5425
141,141,0,64178,5425
142,142,0,64204,33602
143,143,0,65249,33602
144,144,0,65527,33602
145,145,0,43548,33602
146,146,0,47808,33602
147,147,0,61318,39027
148,148,0,61389,39027
149,149,0,65491,39027
150,150,0,61411,39027
151,151,0,61037,39027
152,152,0,64211,7093
153,153,0,60390,7093
154,154,0,65438,7093
155,155,0,60049,7093
156,156,0,61254,7093
157,157,0,49133,46120
158,158,0,44982,46120
159,159,0,64072,46120
160,160,0,0,46120
161,161,0,975,46120
162,162,0,1717,53213
163,163,0,3022,53213
164,164,0,3616,53213
165,165,0,3890,53213
166,166,0,7164,53213
167,167,0,16226,33797
168,168,0,16211,33797
169,169,0,28350,33797
170,170,0,47951,33797
171,171,0,64210,33797
172,172,0,65132,21474
173,173,0,65297,21474
174,174,0,61203,21474
175,175,0,61132,21474
176,176,0,60976,21474
177,177,0,60022,55271
178,178,0,60349,55271
179,179,0,65139,55271
180,180,0,65107,55271
181,181,0,65213,55271
182,182,0,65457,11209
183,183,0,51718,11209
184,184,0,35597,11209
185,185,0,35776,11209
186,186,0,45015,11209
187,187,0,64509,944
188,188,0,65056,944
189,189,0,44727,944
190,190,0,60302,944
191,191,0,48800,944
192,192,0,48742,12153
193,193,0,47805,12153
194,194,0,44563,12153
195,195,0,43798,12153
196,196,0,48782,12153
197,197,0,60208,13097
198,198,0,61382,13097
199,199,0,61117,13097
200,200,0,64064,13097
201,201,0,64215,13097
202,202,0,64493,25250
203,203,0,65088,25250
204,204,0,65158,25250
205,205,0,65373,25250
206,206,0,65107,25250
207,207,0,49127,38347
208,208,0,47662,38347
209,209,0,48758,38347
210,210,0,65494,38347
211,211,0,60239,38347
212,212,0,65090,63597
213,213,0,43533,63597
214,214,0,60159,63597
215,215,0,48848,63597
216,216,0,49133,63597
217,217,0,44575,36408
218,218,0,60322,36408
219,219,0,60059,36408
220,220,0,65198,36408
221,221,0,65505,36408
222,222,0,64469,34469
223,223,0,65074,34469
224,224,0,65426,34469
225,225,0,65419,34469
226,226,0,65487,34469
227,227,0,65477,5341
228,228,0,59966,5341
229,229,0,64210,5341
230,230,0,64453,5341
231,231,0,64316,5341
232,232,0,65071,39810
233,233,0,65490,39810
234,234,0,44590,39810
235,235,0,44815,39810
236,236,0,61429,39810
237,237,0,61067,45151
238,238,0,64450,45151
239,239,0,65174,45151
240,240,0,65307,45151
241,241,0,65503,45151
242,242,0,47813,19425
243,243,0,48780,19425
244,244,0,47727,19425
245,245,0,48817,19425
246,246,0,48028,19425
247,247,0,48751,64576
248,248,0,48771,64576
249,249,0,61244,64576
250,250,0,36831,64576
251,251,0,44597,64576
252,252,0,43711,18465
253,253,0,44753,18465
254,254,0,44690,18465
255,255,0,47867,18465
256,256,0,59951,18465
257,257,0,61173,17505
258,258,0,59934,17505
259,259,0,43586,17505
260,260,0,64145,17505
261,261,0,0,17505
262,262,0,522,35970
263,263,0,969,35970
264,264,0,3759,35970
265,265,0,8170,35970
266,266,0,3874,35970
267,267,0,12044,53475
268,268,0,11115,53475
269,269,0,3871,53475
270,270,0,12274,53475
271,271,0,16362,53475
272,272,0,12156,23909
273,273,0,12124,23909
274,274,0,11818,23909
275,275,0,11967,23909
276,276,0,11948,23909
277,277,0,12266,11848
278,278,0,16189,11848
279,279,0,11980,11848
280,280,0,12201,11848
281,281,0,14940,11848
282,282,0,28530,35757
283,283,0,61002,35757
284,284,0,65213,35757
285,285,0,64012,35757
286,286,0,64074,35757
287,287,0,64462,47605
288,288,0,65071,47605
289,289,0,65226,47605
290,290,0,61244,47605
291,291,0,60940,47605
292,292,0,45002,17826
293,293,0,65117,17826
294,294,0,65452,17826
295,295,0,61257,17826
296,296,0,61308,17826
297,297,0,65051,65431
298,298,0,65354,65431
299,299,0,60994,65431
300,300,0,65499,65431
301,301,0,61257,65431
302,302,0,64479,17721
303,303,0,61324,17721
304,304,0,65482,17721
305,305,0,65501,17721
306,306,0,60338,17721
307,307,0,64073,17616
308,308,0,65442,17616
309,309,0,48850,17616
310,310,0,48075,17616
311,311,0,60351,17616
312,312,0,61275,35337
313,313,0,65098,35337
314,314,0,44796,35337
315,315,0,49039,35337
316,316,0,64457,35337
317,317,0,65087,52953
318,318,0,64377,52953
319,319,0,47978,52953
320,320,0,44767,52953
321,321,0,64460,52953
322,322,0,64203,22754
323,323,0,62943,22754
324,324,0,65401,22754
325,325,0,61001,22754
326,326,0,60156,22754
327,327,0,65531,10171
328,328,0,61162,10171
329,329,0,64450,10171
330,330,0,60251,10171
331,331,0,64362,10171
332,332,0,44796,32925
333,333,0,43996,32925
334,334,0,48074,32925
335,335,0,59996,32925
336,336,0,61356,32925
337,337,0,61034,43096
338,338,0,65069,43096
339,339,0,65501,43096
340,340,0,44747,43096
341,341,0,47964,43096
342,342,0,44786,10485
343,343,0,59978,10485
344,344,0,61346,10485
345,345,0,65275,10485
346,346,0,65035,10485
347,347,0,65215,53581
348,348,0,65388,53581
349,349,0,48106,53581
350,350,0,61309,53581
351,351,0,65471,53581
352,352,0,65026,64066
353,353,0,65247,64066
354,354,0,65115,64066
355,355,0,65354,64066
356,356,0,65533,64066
357,357,0,64271,52111
358,358,0,65257,52111
359,359,0,43932,52111
360,360,0,60399,52111
361,361,0,60354,52111
362,362,0,0,50641
363,363,0,422,50641
364,364,0,1741,50641
365,365,0,3842,50641
366,366,0,7099,50641
367,367,0,11090,37216
368,368,0,11176,37216
369,369,0,12283,37216
370,370,0,32367,37216
371,371,0,16322,37216
372,372,0,60090,22321
373,373,0,65389,22321
374,374,0,65084,22321
375,375,0,65497,22321
376,376,0,65391,22321
377,377,0,65355,59537
378,378,0,45019,59537
379,379,0,47916,59537
380,380,0,65407,59537
381,381,0,61435,59537
382,382,0,44751,16322
383,383,0,64450,16322
384,384,0,43994,16322
385,385,0,49005,16322
386,386,0,64299,16322
387,387,0,44761,10323
388,388,0,60414,10323
389,389,0,65218,10323
390,390,0,45017,10323
391,391,0,44909,10323
392,392,0,61183,26645
393,393,0,61434,26645
394,394,0,65263,26645
395,395,0,60362,26645
396,396,0,64185,26645
397,397,0,65391,36968
398,398,0,44642,36968
399,399,0,49082,36968
400,400,0,44652,36968
401,401,0,61343,36968
402,402,0,49049,63613
403,403,0,49132,63613
404,404,0,49122,63613
405,405,0,45049,63613
406,406,0,47855,63613
407,407,0,43807,35045
408,408,0,44986,35045
409,409,0,49135,35045
410,410,0,49151,35045
411,411,0,48121,35045
412,412,0,49039,33122
413,413,0,60354,33122
414,414,0,65370,33122
415,415,0,64332,33122
416,416,0,43967,33122
417,417,0,61051,2631
418,418,0,61359,2631
419,419,0,61131,2631
420,420,0,60402,2631
421,421,0,61004,2631
422,422,0,61354,35753
423,423,0,65401,35753
424,424,0,65357,35753
425,425,0,65118,35753
426,426,0,61106,35753
427,427,0,65518,38384
428,428,0,65407,38384
429,429,0,61394,38384
430,430,0,61355,38384
431,431,0,64219,38384
432,432,0,61304,8601
433,433,0,44620,8601
434,434,0,44910,8601
435,435,0,45019,8601
436,436,0,48875,8601
437,437,0,61321,46985
438,438,0,60082,46985
439,439,0,61294,46985
440,440,0,44029,46985
441,441,0,43663,46985
442,442,0,60235,55586
443,443,0,61278,55586
444,444,0,44719,55586
445,445,0,65386,55586
446,446,0,48162,55586
447,447,0,44754,37035
448,448,0,43979,37035
449,449,0,48349,37035
450,450,0,61106,37035
451,451,0,64362,37035
452,452,0,49186,27085
453,453,0,65241,27085
454,454,0,64490,27085
455,455,0,65087,27085
456,456,0,60402,27085
457,457,0,65483,64120
458,458,0,64546,64120
459,459,0,44978,64120
460,460,0,65314,64120
461,461,0,65501,64120
462,462,0,65518,25669
463,463,0,0,25669
464,464,0,762,25669
465,465,0,3807,25669
466,466,0,7967,25669
467,467,0,12249,24253
468,468,0,12034,24253
469,469,0,12124,24253
470,470,0,11897,24253
471,471,0,12255,24253
472,472,0,16347,49922
473,473,0,12078,49922
474,474,0,11240,49922
475,475,0,15355,49922
476,476,0,61133,49922
477,477,0,65243,8639
478,478,0,61243,8639
479,479,0,43886,8639
480,480,0,44607,8639
481,481,0,48827,8639
482,482,0,61005,58561
483,483,0,44879,58561
484,484,0,48667,58561
485,485,0,49132,58561
486,486,0,61225,58561
487,487,0,48090,1664
488,488,0,48761,1664
489,489,0,44876,1664
490,490,0,61210,1664
491,491,0,64478,1664
492,492,0,48956,60225
493,493,0,48667,60225
494,494,0,48653,60225
495,495,0,61378,60225
496,496,0,61402,60225
497,497,0,44626,61889
498,498,0,44607,61889
499,499,0,44826,61889
500,500,0,44655,61889
501,501,0,61212,61889
502,502,0,48859,56578
503,503,0,44946,56578
504,504,0,65506,56578
505,505,0,61305,56578
506,506,0,44911,56578
507,507,0,60239,52931
508,508,0,65498,52931
509,509,0,45039,52931
510,510,0,44602,52931
511,511,0,61305,52931
512,512,1,65485,43973
513,513,0,44619,43973
514,514,0,61241,43973
515,515,0,44876,43973
516,516,0,65535,43973
517,517,0,44658,31368
518,518,0,44911,31368
519,519,0,44619,31368
520,520,0,60280,31368
521,521,0,65356,31368
522,522,0,60202,9805
523,523,0,60377,9805
524,524,0,48879,9805
525,525,0,44766,9805
526,526,0,49144,9805
527,527,0,60940,41173
528,528,0,60971,41173
529,529,0,61337,41173
530,530,0,61292,41173
531,531,0,61151,41173
532,532,0,44978,50978
533,533,0,64335,50978
534,534,0,61227,50978
535,535,0,64472,50978
536,536,0,44780,50978
537,537,0,45002,26615
538,538,0,48025,26615
539,539,0,61391,26615
540,540,0,61354,26615
541,541,0,60946,26615
542,542,0,61228,12057
543,543,0,61131,12057
544,544,0,64473,12057
545,545,0,61294,12057
546,546,0,44031,12057
547,547,0,65242,38672
548,548,0,65135,38672
549,549,0,64479,38672
550,550,0,65528,38672
551,551,0,65100,38672
552,552,0,65130,50729
553,553,0,65497,50729
554,554,0,44845,50729
555,555,0,65246,50729
556,556,0,45048,50729
557,557,0,60270,23865
558,558,0,65071,23865
559,559,0,64498,23865
560,560,0,61390,23865
561,561,0,65242,23865
562,562,0,60338,9058
563,563,0,60269,9058
564,564,0,0,9058
565,565,0,1613,9058
566,566,0,3747,9058
567,567,0,6711,32923
568,568,0,7166,32923
569,569,0,35542,32923
570,570,0,40854,32923
571,571,0,39774,32923
572,572,0,40512,41981
573,573,0,44741,41981
574,574,0,48959,41981
575,575,0,44976,41981
576,576,0,44024,41981
577,577,0,59934,9368
578,578,0,60401,9368
579,579,0,43912,9368
580,580,0,44637,9368
581,581,0,43587,9368
582,582,0,43799,51349
583,583,0,49150,51349
584,584,0,44790,51349
585,585,0,48727,51349
586,586,0,48029,51349
587,587,0,65139,60717
588,588,0,64382,60717
589,589,0,65534,60717
590,590,0,65185,60717
591,591,0,60311,60717
592,592,0,44989,46530
593,593,0,43888,46530
594,594,0,64007,46530
595,595,0,63534,46530
596,596,0,48001,46530
597,597,0,64391,41711
598,598,0,47741,41711
599,599,0,64483,41711
600,600,0,43939,41711
601,601,0,61438,41711
602,602,0,60944,22705
603,603,0,44579,22705
604,604,0,64494,22705
605,605,0,64175,22705
606,606,0,64102,22705
607,607,0,48924,64416
608,608,0,48673,64416
609,609,0,60966,64416
610,610,0,61279,64416
611,611,0,60354,64416
612,612,0,65170,21585
613,613,0,65469,21585
614,614,0,65344,21585
615,615,0,61045,21585
616,616,0,61403,21585
617,617,0,64426,20465
618,618,0,64211,20465
619,619,0,64478,20465
620,620,0,65295,20465
621,621,0,48034,20465
622,622,0,61419,42050
623,623,0,60928,42050
624,624,0,61414,42050
625,625,0,65221,42050
626,626,0,61439,42050
627,627,0,61381,62515
628,628,0,64478,62515
629,629,0,44976,62515
630,630,0,49013,62515
631,631,0,65132,62515
632,632,0,44674,39029
633,633,0,65430,39029
634,634,0,61052,39029
635,635,0,61295,39029
636,636,0,61398,39029
637,637,0,61196,36008
638,638,0,61073,36008
639,639,0,60339,36008
640,640,0,60107,36008
641,641,0,65474,36008
642,642,0,64406,9501
643,643,0,65213,9501
644,644,0,64209,9501
645,645,0,60166,9501
646,646,0,60158,9501
647,647,0,49104,45509
648,648,0,60311,45509
649,649,0,64141,45509
650,650,0,64418,45509
651,651,0,65270,45509
652,652,0,64366,55010
653,653,0,43555,55010
654,654,0,43783,55010
655,655,0,60412,55010
656,656,0,44992,55010
657,657,0,61318,34983
658,658,0,61117,34983
659,659,0,65299,34983
660,660,0,65446,34983
661,661,0,44878,34983
662,662,0,61424,24457
663,663,0,61015,24457
664,664,0,65117,24457
665,665,0,0,24457
666,666,0,619,24457
667,667,0,2642,59440
668,668,0,3000,59440
669,669,0,3019,59440
670,670,0,8062,59440
671,671,0,7884,59440
672,672,0,15307,18361
673,673,0,11227,18361
674,674,0,27311,18361
675,675,0,28522,18361
676,676,0,44029,18361
677,677,0,43993,12265
678,678,0,49102,12265
679,679,0,49097,12265
680,680,0,61052,12265
681,681,0,64395,12265
682,682,0,60141,30626
683,683,0,64216,30626
684,684,0,59982,30626
685,685,0,64349,30626
686,686,0,65327,30626
687,687,0,64299,42891
688,688,0,65322,42891
689,689,0,65042,42891
690,690,0,61163,42891
691,691,0,60379,42891
692,692,0,43567,7981
693,693,0,44876,7981
694,694,0,48682,7981
695,695,0,65291,7981
696,696,0,48974,7981
697,697,0,44571,50872
698,698,0,48690,50872
699,699,0,48972,50872
700,700,0,65405,50872
701,701,0,47883,50872
702,702,0,65515,58853
703,703,0,47966,58853
704,704,0,48952,58853
705,705,0,44011,58853
706,706,0,44925,58853
707,707,0,61337,44189
708,708,0,65294,44189
709,709,0,48713,44189
710,710,0,65149,44189
711,711,0,61291,44189
712,712,0,61682,37506
713,713,0,45016,37506
714,714,0,65259,37506
715,715,0,64334,37506
716,716,0,64684,37506
717,717,0,60970,16159
718,718,0,49133,16159
719,719,0,65119,16159
720,720,0,45003,16159
721,721,0,65346,16159
722,722,0,61436,53665
723,723,0,65419,53665
724,724,0,61309,53665
725,725,0,65370,53665
726,726,0,61259,53665
727,727,0,47950,4288
728,728,0,65135,4288
729,729,0,65482,4288
730,730,0,65247,4288
731,731,0,48018,4288
732,732,0,65514,57953
733,733,0,65353,57953
734,734,0,64684,57953
735,735,0,65097,57953
736,736,0,65087,57953
737,737,0,65370,62241
738,738,0,47979,62241
739,739,0,65294,62241
740,740,0,64347,62241
741,741,0,61418,62241
742,742,0,65308,54658
743,743,0,61021,54658
744,744,0,65130,54658
745,745,0,65215,54658
746,746,0,65458,54658
747,747,0,61419,51363
748,748,0,61309,51363
749,749,0,65369,51363
750,750,0,61195,51363
751,751,0,59932,51363
752,752,0,60402,40485
753,753,0,65322,40485
754,754,0,61310,40485
755,755,0,61051,40485
756,756,0,61418,40485
757,757,0,61404,26312
758,758,0,61433,26312
759,759,0,65323,26312
760,760,0,61343,26312
761,761,0,43611,26312
762,762,0,47882,1261
763,763,0,48722,1261
764,764,0,44860,1261
765,765,0,43721,1261
766,766,0,0,1261
767,767,0,159,27573
768,768,0,594,27573
769,769,0,1019,27573
770,770,0,8127,27573
771,771,0,15873,27573
772,772,0,11096,28834
773,773,0,10975,28834
774,774,0,11797,28834
775,775,0,15246,28834
776,776,0,16111,28834
777,777,0,16321,56407
778,778,0,48859,56407
779,779,0,44879,56407
780,780,0,44791,56407
781,781,0,47768,56407
782,782,0,48718,19705
783,783,0,49061,19705
784,784,0,44807,19705
785,785,0,48846,19705
786,786,0,65141,19705
787,787,0,65309,10576
788,788,0,64178,10576
789,789,0,64417,10576
790,790,0,65046,10576
791,791,0,65262,10576
792,792,0,60102,30281
793,793,0,60379,30281
794,794,0,61311,30281
795,795,0,64326,30281
796,796,0,48710,30281
797,797,0,65358,40857
798,798,0,43573,40857
799,799,0,48797,40857
800,800,0,48718,40857
801,801,0,49025,40857
802,802,0,61256,5602
803,803,0,64063,5602
804,804,0,44997,5602
805,805,0,64326,5602
806,806,0,61102,5602
807,807,0,61046,46459
808,808,0,61435,46459
809,809,0,65103,46459
810,810,0,61430,46459
811,811,0,65045,46459
812,812,0,64559,52061
813,813,0,60034,52061
814,814,0,65515,52061
815,815,0,43678,52061
816,816,0,43765,52061
817,817,0,64344,32984
818,818,0,65450,32984
819,819,0,65493,32984
820,820,0,61078,32984
821,821,0,60990,32984
822,822,0,65062,19509
823,823,0,65307,19509
824,824,0,44735,19509
825,825,0,43970,19509
826,826,0,60216,19509
827,827,0,44782,52493
828,828,0,60309,52493
829,829,0,48653,52493
830,830,0,48862,52493
831,831,0,61366,52493
832,832,0,65286,6466
833,833,0,59951,6466
834,834,0,65041,6466
835,835,0,64071,6466
836,836,0,64270,6466
837,837,0,65296,58959
838,838,0,48680,58959
839,839,0,48975,58959
840,840,0,48928,58959
841,841,0,49095,58959
842,842,0,48974,65425
843,843,0,60993,65425
844,844,0,65254,65425
845,845,0,49037,65425
846,846,0,61142,65425
847,847,0,60262,58848
848,848,0,61343,58848
849,849,0,61025,58848
850,850,0,48691,58848
851,851,0,48990,58848
852,852,0,43728,58737
853,853,0,47733,58737
854,854,0,44846,58737
855,855,0,49107,58737
856,856,0,47830,58737
857,857,0,65198,52049
858,858,0,49125,52049
859,859,0,64440,52049
860,860,0,65535,52049
861,861,0,65446,52049
862,862,0,64070,45250
863,863,0,65439,45250
864,864,0,65361,45250
865,865,0,65415,45250
866,866,0,48670,45250
867,867,0,0,31763
868,868,0,438,31763
869,869,0,617,31763
870,870,0,3805,31763
871,871,0,4079,31763
872,872,0,3881,11477
873,873,0,8060,11477
874,874,0,3963,11477
875,875,0,16329,11477
876,876,0,11871,11477
877,877,0,61311,43240
878,878,0,64330,43240
879,879,0,44668,43240
880,880,0,43791,43240
881,881,0,44777,43240
882,882,0,45020,54717
883,883,0,44716,54717
884,884,0,45002,54717
885,885,0,48767,54717
886,886,0,44859,54717
887,887,0,44777,32421
888,888,0,44802,32421
889,889,0,44018,32421
890,890,0,48041,32421
891,891,0,48863,32421
892,892,0,64463,21602
893,893,0,61066,21602
894,894,0,65052,21602
895,895,0,65498,21602
896,896,0,65001,21602
897,897,0,65341,54023
898,898,0,65467,54023
899,899,0,65355,54023
900,900,0,65501,54023
901,901,0,65519,54023
902,902,0,65385,10089
903,903,0,65404,10089
904,904,0,65147,10089
905,905,0,65354,10089
906,906,0,65244,10089
907,907,0,65407,64112
908,908,0,65418,64112
909,909,0,61244,64112
910,910,0,61050,64112
911,911,0,61346,64112
912,912,0,61116,8665
913,913,0,61211,8665
914,914,0,61225,8665
915,915,0,61404,8665
916,916,0,61434,8665
917,917,0,61410,7241
918,918,0,65246,7241
919,919,0,61423,7241
920,920,0,64362,7241
921,921,0,65533,7241
