Sample in Buffer,Sample in Window,TRIGGER,freq_1[15:0],debug_1[15:0]
Radix - UNSIGNED,UNSIGNED,UNSIGNED,UNSIGNED,UNSIGNED
0,0,0,65405,3629
1,1,0,65376,3629
2,2,0,65463,57528
3,3,0,48846,57528
4,4,0,60022,57528
5,5,0,64483,57528
6,6,0,59949,57528
7,7,0,65425,61157
8,8,0,64023,61157
9,9,0,61085,61157
10,10,0,64352,61157
11,11,0,64246,61157
12,12,0,65054,53149
13,13,0,65347,53149
14,14,0,43907,53149
15,15,0,43998,53149
16,16,0,43520,53149
17,17,0,44742,48770
18,18,0,43805,48770
19,19,0,48099,48770
20,20,0,49090,48770
21,21,0,45021,48770
22,22,0,61057,36383
23,23,0,65095,36383
24,24,0,61439,36383
25,25,0,0,36383
26,26,0,798,36383
27,27,0,2657,19617
28,28,0,3052,19617
29,29,0,7919,19617
30,30,0,7862,19617
31,31,0,7692,19617
32,32,0,7919,56000
33,33,0,11862,56000
34,34,0,15100,56000
35,35,0,15199,56000
36,36,0,14865,56000
37,37,0,12203,10081
38,38,0,12112,10081
39,39,0,16370,10081
40,40,0,15221,10081
41,41,0,31567,10081
42,42,0,28389,545
43,43,0,27598,545
44,44,0,44962,545
45,45,0,61265,545
46,46,0,61436,545
47,47,0,61314,10626
48,48,0,60035,10626
49,49,0,60989,10626
50,50,0,48722,10626
51,51,0,65366,10626
52,52,0,44750,11171
53,53,0,47731,11171
54,54,0,48087,11171
55,55,0,47853,11171
56,56,0,65169,11171
57,57,0,47715,21797
58,58,0,48975,21797
59,59,0,47811,21797
60,60,0,61302,21797
61,61,0,61437,21797
62,62,0,64065,32968
63,63,0,65518,32968
64,64,0,64238,32968
65,65,0,64481,32968
66,66,0,60151,32968
67,67,0,47725,54765
68,68,0,47894,54765
69,69,0,48024,54765
70,70,0,64462,54765
71,71,0,65187,54765
72,72,0,65350,22197
73,73,0,61375,22197
74,74,0,64310,22197
75,75,0,65095,22197
76,76,0,60062,22197
77,77,0,48707,11426
78,78,0,60968,11426
79,79,0,61134,11426
80,80,0,61363,11426
81,81,0,61366,11426
82,82,0,61278,33623
83,83,0,43574,33623
84,84,0,49016,33623
85,85,0,48958,33623
86,86,0,48064,33623
87,87,0,45014,45049
88,88,0,49135,45049
89,89,0,47617,45049
90,90,0,60070,45049
91,91,0,61103,45049
92,92,0,61008,13136
93,93,0,65323,13136
94,94,0,48798,13136
95,95,0,49123,13136
96,96,0,47879,13136
97,97,0,59951,58185
98,98,0,60305,58185
99,99,0,64248,58185
100,100,0,64111,58185
101,101,0,64160,58185
102,102,0,43606,5785
103,103,0,44015,5785
104,104,0,60230,5785
105,105,0,60327,5785
106,106,0,43646,5785
107,107,0,60994,63970
108,108,0,64141,63970
109,109,0,65215,63970
110,110,0,35027,63970
111,111,0,60966,63970
112,112,0,44623,4219
113,113,0,47815,4219
114,114,0,48904,4219
115,115,0,65454,4219
116,116,0,43984,4219
117,117,0,44790,2653
118,118,0,61215,2653
119,119,0,48086,2653
120,120,0,60951,2653
121,121,0,64046,2653
122,122,0,48854,6872
123,123,0,48045,6872
124,124,0,60414,6872
125,125,0,44019,6872
126,126,0,0,6872
127,127,0,259,9525
128,128,0,903,9525
129,129,0,2828,9525
130,130,0,15263,9525
131,131,0,11777,9525
132,132,0,15901,16397
133,133,0,59922,16397
134,134,0,43541,16397
135,135,0,44744,16397
136,136,0,49135,16397
137,137,0,48822,25922
138,138,0,47803,25922
139,139,0,47663,25922
140,140,0,60224,25922
141,141,0,48840,25922
142,142,0,65518,42319
143,143,0,61249,42319
144,144,0,60395,42319
145,145,0,60126,42319
146,146,0,65062,42319
147,147,0,65208,2705
148,148,0,65183,2705
149,149,0,60086,2705
150,150,0,65271,2705
151,151,0,44846,2705
152,152,0,48992,45024
153,153,0,49031,45024
154,154,0,43663,45024
155,155,0,43699,45024
156,156,0,47862,45024
157,157,0,49086,47729
158,158,0,60229,47729
159,159,0,61128,47729
160,160,0,65406,47729
161,161,0,61347,47729
162,162,0,64071,27217
163,163,0,61407,27217
164,164,0,64355,27217
165,165,0,64499,27217
166,166,0,60269,27217
167,167,0,61363,9410
168,168,0,65528,9410
169,169,0,47838,9410
170,170,0,61057,9410
171,171,0,64455,9410
172,172,0,65293,36627
173,173,0,61142,36627
174,174,0,44886,36627
175,175,0,65165,36627
176,176,0,44995,36627
177,177,0,44743,46037
178,178,0,61070,46037
179,179,0,60998,46037
180,180,0,61299,46037
181,181,0,60030,46037
182,182,0,64241,17128
183,183,0,64502,17128
184,184,0,60191,17128
185,185,0,60336,17128
186,186,0,59971,17128
187,187,0,60205,63165
188,188,0,61379,63165
189,189,0,44743,63165
190,190,0,61245,63165
191,191,0,47808,63165
192,192,0,47654,14757
193,193,0,47885,14757
194,194,0,44177,14757
195,195,0,43794,14757
196,196,0,43534,14757
197,197,0,44752,12386
198,198,0,43763,12386
199,199,0,44749,12386
200,200,0,44946,12386
201,201,0,44742,12386
202,202,0,48830,27143
203,203,0,45233,27143
204,204,0,43767,27143
205,205,0,48030,27143
206,206,0,60034,27143
207,207,0,65398,39529
208,208,0,64349,39529
209,209,0,43729,39529
210,210,0,44711,39529
211,211,0,48654,39529
212,212,0,64082,1136
213,213,0,64147,1136
214,214,0,65038,1136
215,215,0,65119,1136
216,216,0,44727,1136
217,217,0,64012,40665
218,218,0,44560,40665
219,219,0,61398,40665
220,220,0,60075,40665
221,221,0,64383,40665
222,222,0,61285,41801
223,223,0,60381,41801
224,224,0,60962,41801
225,225,0,61121,41801
226,226,0,65371,41801
227,227,0,0,16930
228,228,0,582,16930
229,229,0,4089,16930
230,230,0,7900,16930
231,231,0,12123,16930
232,232,0,11117,58731
233,233,0,16383,58731
234,234,0,64510,58731
235,235,0,60146,58731
236,236,0,61389,58731
237,237,0,65114,10125
238,238,0,65373,10125
239,239,0,60223,10125
240,240,0,48890,10125
241,241,0,64450,10125
242,242,0,60316,3320
243,243,0,48059,3320
244,244,0,61293,3320
245,245,0,44715,3320
246,246,0,47833,3320
247,247,0,49135,13445
248,248,0,61122,13445
249,249,0,65370,13445
250,250,0,61421,13445
251,251,0,61311,13445
252,252,0,44921,16765
253,253,0,61260,16765
254,254,0,65483,16765
255,255,0,65522,16765
256,256,0,61421,16765
257,257,0,48942,30210
258,258,0,65529,30210
259,259,0,49103,30210
260,260,0,65481,30210
261,261,0,60282,30210
262,262,0,61262,46975
263,263,0,65082,46975
264,264,0,61401,46975
265,265,0,61164,46975
266,266,0,61214,46975
267,267,0,61362,11649
268,268,0,61421,11649
269,269,0,60970,11649
270,270,0,61387,11649
271,271,0,61422,11649
272,272,0,61257,58624
273,273,0,65497,58624
274,274,0,65518,58624
275,275,0,61042,58624
276,276,0,61391,58624
277,277,0,61163,4737
278,278,0,61386,4737
279,279,0,61119,4737
280,280,0,65259,4737
281,281,0,65405,4737
282,282,0,61401,63361
283,283,0,61164,63361
284,284,0,61385,63361
285,285,0,45049,63361
286,286,0,65227,63361
287,287,0,65321,2562
288,288,0,49114,2562
289,289,0,61262,2562
290,290,0,65106,2562
291,291,0,65455,2562
292,292,0,65035,387
293,293,0,64366,387
294,294,0,65434,387
295,295,0,49067,387
296,296,0,60105,387
297,297,0,65400,2949
298,298,0,65100,2949
299,299,0,60202,2949
300,300,0,61135,2949
301,301,0,64494,2949
302,302,0,60382,3336
303,303,0,64345,3336
304,304,0,48972,3336
305,305,0,60285,3336
306,306,0,64223,3336
307,307,0,48078,6285
308,308,0,44746,6285
309,309,0,44889,6285
310,310,0,43886,6285
311,311,0,48766,6285
312,312,0,64472,9621
313,313,0,65263,9621
314,314,0,45023,9621
315,315,0,49016,9621
316,316,0,61294,9621
317,317,0,51966,15906
318,318,0,61138,15906
319,319,0,64492,15906
320,320,0,44253,15906
321,321,0,61359,15906
322,322,0,65099,25527
323,323,0,44798,25527
324,324,0,60370,25527
325,325,0,65259,25527
326,326,0,43981,25527
327,327,0,60409,41433
328,328,0,0,41433
329,329,0,938,41433
330,330,0,3039,41433
331,331,0,8178,41433
332,332,0,27209,1424
333,333,0,28450,1424
334,334,0,43986,1424
335,335,0,44770,1424
336,336,0,44892,1424
337,337,0,60271,42857
338,338,0,60233,42857
339,339,0,60383,42857
340,340,0,65274,42857
341,341,0,48840,42857
342,342,0,60382,44281
343,343,0,61279,44281
344,344,0,65090,44281
345,345,0,60123,44281
346,346,0,60366,44281
347,347,0,65247,21602
348,348,0,60220,21602
349,349,0,64350,21602
350,350,0,61420,21602
351,351,0,48123,21602
352,352,0,47821,347
353,353,0,48072,347
354,354,0,60254,347
355,355,0,48877,347
356,356,0,61161,347
357,357,0,49147,21949
358,358,0,61262,21949
359,359,0,65352,21949
360,360,0,43995,21949
361,361,0,61017,21949
362,362,0,65385,22296
363,363,0,48126,22296
364,364,0,44793,22296
365,365,0,49090,22296
366,366,0,65210,22296
367,367,0,65362,44245
368,368,0,65339,44245
369,369,0,43835,44245
370,370,0,61260,44245
371,371,0,65372,44245
372,372,0,49114,1005
373,373,0,65373,1005
374,374,0,44905,1005
375,375,0,49018,1005
376,376,0,65266,1005
377,377,0,60162,45250
378,378,0,61402,45250
379,379,0,61422,45250
380,380,0,65067,45250
381,381,0,61307,45250
382,382,0,65359,46255
383,383,0,65308,46255
384,384,0,60955,46255
385,385,0,61420,46255
386,386,0,65131,46255
387,387,0,44922,25969
388,388,0,65522,25969
389,389,0,61378,25969
390,390,0,65209,25969
391,391,0,65234,25969
392,392,0,44898,6688
393,393,0,65467,6688
394,394,0,65522,6688
395,395,0,65227,6688
396,396,0,65498,6688
397,397,0,65362,32657
398,398,0,61289,32657
399,399,0,65306,32657
400,400,0,61324,32657
401,401,0,65218,32657
402,402,0,48890,39345
403,403,0,61273,39345
404,404,0,61417,39345
405,405,0,44026,39345
406,406,0,43762,39345
407,407,0,45020,6466
408,408,0,48827,6466
409,409,0,61273,6466
410,410,0,64370,6466
411,411,0,61179,6466
412,412,0,44018,45811
413,413,0,47823,45811
414,414,0,49083,45811
415,415,0,61010,45811
416,416,0,64489,45811
417,417,0,48123,52277
418,418,0,45049,52277
419,419,0,48863,52277
420,420,0,60218,52277
421,421,0,64089,52277
422,422,0,65343,32552
423,423,0,60380,32552
424,424,0,61134,32552
425,425,0,65353,32552
426,426,0,65467,32552
427,427,0,65497,19293
428,428,0,44904,19293
429,429,0,0,19293
430,430,0,894,19293
431,431,0,11184,19293
432,432,0,15254,51845
433,433,0,15919,51845
434,434,0,12022,51845
435,435,0,16327,51845
436,436,0,48030,51845
437,437,0,61296,5602
438,438,0,64077,5602
439,439,0,61119,5602
440,440,0,60256,5602
441,441,0,65102,5602
442,442,0,65198,57447
443,443,0,61142,57447
444,444,0,61205,57447
445,445,0,64142,57447
446,446,0,60928,57447
447,447,0,47766,63049
448,448,0,45007,63049
449,449,0,59990,63049
450,450,0,60231,63049
451,451,0,61022,63049
452,452,0,48019,54960
453,453,0,47637,54960
454,454,0,48830,54960
455,455,0,48723,54960
456,456,0,60326,54960
457,457,0,60062,52473
458,458,0,60353,52473
459,459,0,48792,52473
460,460,0,43534,52473
461,461,0,65488,52473
462,462,0,47702,41897
463,463,0,49071,41897
464,464,0,43574,41897
465,465,0,43958,41897
466,466,0,44606,41897
467,467,0,48704,28834
468,468,0,65093,28834
469,469,0,65391,28834
470,470,0,65520,28834
471,471,0,48776,28834
472,472,0,47854,5195
473,473,0,48005,5195
474,474,0,48955,5195
475,475,0,48814,5195
476,476,0,44662,5195
477,477,0,47813,34029
478,478,0,48978,34029
479,479,0,48754,34029
480,480,0,48973,34029
481,481,0,64095,34029
482,482,0,43989,39224
483,483,0,43822,39224
484,484,0,47810,39224
485,485,0,60225,39224
486,486,0,60245,39224
487,487,0,61423,7717
488,488,0,64181,7717
489,489,0,64395,7717
490,490,0,64046,7717
491,491,0,64449,7717
492,492,0,60277,46941
493,493,0,60402,46941
494,494,0,48037,46941
495,495,0,43720,46941
496,496,0,65279,46941
497,497,0,49094,54658
498,498,0,60347,54658
499,499,0,64351,54658
500,500,0,65170,54658
501,501,0,60365,54658
502,502,0,64127,36063
503,503,0,65205,36063
504,504,0,61148,36063
505,505,0,61311,36063
506,506,0,65473,36063
507,507,0,65271,25185
508,508,0,65298,25185
509,509,0,61237,25185
510,510,0,61128,25185
511,511,0,64431,25185
512,512,1,65313,61248
513,513,0,64510,61248
514,514,0,60095,61248
515,515,0,61094,61248
516,516,0,47989,61248
517,517,0,48111,20897
518,518,0,47890,20897
519,519,0,48699,20897
520,520,0,61358,20897
521,521,0,61158,20897
522,522,0,64333,16609
523,523,0,64066,16609
524,524,0,47653,16609
525,525,0,47832,16609
526,526,0,44591,16609
527,527,0,61393,37506
528,528,0,64140,37506
529,529,0,65490,37506
530,530,0,0,37506
531,531,0,189,37506
532,532,0,525,54115
533,533,0,774,54115
534,534,0,4008,54115
535,535,0,2879,54115
536,536,0,2960,54115
537,537,0,3670,26085
538,538,0,7839,26085
539,539,0,16310,26085
540,540,0,48823,26085
541,541,0,61103,26085
542,542,0,59942,14664
543,543,0,61115,14664
544,544,0,65215,14664
545,545,0,64304,14664
546,546,0,60346,14664
547,547,0,61214,40749
548,548,0,65157,40749
549,549,0,64411,40749
550,550,0,44990,40749
551,551,0,65206,40749
552,552,0,65192,55413
553,553,0,64511,55413
554,554,0,48069,55413
555,555,0,48888,55413
556,556,0,60383,55413
557,557,0,64337,30626
558,558,0,65052,30626
559,559,0,65058,30626
560,560,0,61318,30626
561,561,0,65237,30626
562,562,0,65423,20503
563,563,0,65186,20503
564,564,0,47740,20503
565,565,0,47983,20503
566,566,0,65377,20503
567,567,0,65271,51129
568,568,0,64482,51129
569,569,0,64354,51129
570,570,0,47821,51129
571,571,0,60222,51129
572,572,0,64065,6096
573,573,0,65086,6096
574,574,0,60095,6096
575,575,0,64230,6096
576,576,0,65437,6096
577,577,0,65295,57225
578,578,0,64082,57225
579,579,0,64268,57225
580,580,0,64463,57225
581,581,0,65525,57225
582,582,0,48939,63321
583,583,0,44720,63321
584,584,0,64018,63321
585,585,0,64293,63321
586,586,0,65170,63321
587,587,0,48869,55010
588,588,0,61326,55010
589,589,0,65426,55010
590,590,0,65494,55010
591,591,0,61135,55010
592,592,0,61295,52795
593,593,0,65191,52795
594,594,0,64203,52795
595,595,0,65166,52795
596,596,0,60310,52795
597,597,0,44686,42269
598,598,0,64239,42269
599,599,0,65507,42269
600,600,0,48662,42269
601,601,0,49134,42269
602,602,0,48934,29528
603,603,0,48855,29528
604,604,0,36703,29528
605,605,0,43971,29528
606,606,0,60950,29528
607,607,0,61134,6261
608,608,0,61334,6261
609,609,0,48950,6261
610,610,0,48653,6261
611,611,0,60067,6261
612,612,0,64263,35789
613,613,0,65182,35789
614,614,0,48802,35789
615,615,0,64487,35789
616,616,0,61437,35789
617,617,0,61187,42050
618,618,0,65304,42050
619,619,0,65502,42050
620,620,0,65425,42050
621,621,0,44999,42050
622,622,0,48653,12303
623,623,0,59936,12303
624,624,0,60280,12303
625,625,0,64061,12303
626,626,0,65475,12303
627,627,0,60327,54353
628,628,0,44014,54353
629,629,0,47811,54353
630,630,0,65507,54353
631,631,0,0,54353
632,632,0,202,1120
633,633,0,457,1120
634,634,0,2987,1120
635,635,0,8074,1120
636,636,0,16354,1120
637,637,0,16153,55473
638,638,0,16206,55473
639,639,0,49097,55473
640,640,0,48953,55473
641,641,0,49098,55473
642,642,0,48162,56593
643,643,0,61400,56593
644,644,0,48907,56593
645,645,0,60316,56593
646,646,0,61305,56593
647,647,0,61034,46530
648,648,0,43945,46530
649,649,0,45007,46530
650,650,0,45034,46530
651,651,0,64393,46530
652,652,0,60411,37587
653,653,0,65356,37587
654,654,0,35838,37587
655,655,0,44747,37587
656,656,0,65515,37587
657,657,0,65225,18581
658,658,0,44026,18581
659,659,0,65390,18581
660,660,0,64509,18581
661,661,0,60120,18581
662,662,0,60363,56168
663,663,0,64478,56168
664,664,0,60408,56168
665,665,0,48043,56168
666,666,0,44797,56168
667,667,0,48911,9213
668,668,0,49070,9213
669,669,0,48842,9213
670,670,0,48815,9213
671,671,0,49099,9213
672,672,0,65325,65381
673,673,0,65498,65381
674,674,0,65358,65381
675,675,0,65309,65381
676,676,0,49135,65381
677,677,0,49003,9058
678,678,0,49022,9058
679,679,0,65498,9058
680,680,0,48746,9058
681,681,0,65485,9058
682,682,0,65529,8903
683,683,0,49134,8903
684,684,0,65406,8903
685,685,0,44825,8903
686,686,0,44619,8903
687,687,0,48706,17961
688,688,0,48703,17961
689,689,0,48843,17961
690,690,0,48930,17961
691,691,0,48975,17961
692,692,0,48971,26864
693,693,0,65486,26864
694,694,0,44799,26864
695,695,0,45035,26864
696,696,0,64381,26864
697,697,0,48079,44825
698,698,0,65326,44825
699,699,0,44894,44825
700,700,0,48953,44825
701,701,0,44939,44825
702,702,0,44585,6153
703,703,0,43577,6153
704,704,0,43758,6153
705,705,0,43853,6153
706,706,0,48818,6153
707,707,0,61294,50978
708,708,0,65151,50978
709,709,0,64473,50978
710,710,0,44750,50978
711,711,0,48074,50978
712,712,0,60338,57131
713,713,0,64335,57131
714,714,0,65323,57131
715,715,0,60370,57131
716,716,0,60108,57131
717,717,0,43999,42573
718,718,0,60985,42573
719,719,0,64335,42573
720,720,0,60074,42573
721,721,0,44761,42573
722,722,0,61133,34168
723,723,0,61378,34168
724,724,0,64346,34168
725,725,0,65356,34168
726,726,0,44031,34168
727,727,0,48089,11205
728,728,0,60364,11205
729,729,0,64450,11205
730,730,0,65209,11205
731,731,0,43855,11205
732,732,0,0,45373
733,733,0,406,45373
734,734,0,1727,45373
735,735,0,3041,45373
736,736,0,2839,45373
737,737,0,2749,56578
738,738,0,7888,56578
739,739,0,8126,56578
740,740,0,7821,56578
741,741,0,15203,56578
742,742,0,14947,36415
743,743,0,12206,36415
744,744,0,11846,36415
745,745,0,32455,36415
746,746,0,15949,36415
747,747,0,31315,27457
748,748,0,32318,27457
749,749,0,28623,27457
750,750,0,64273,27457
751,751,0,44806,27457
752,752,0,64125,63872
753,753,0,65153,63872
754,754,0,65480,63872
755,755,0,48765,63872
756,756,0,64147,63872
757,757,0,49094,25793
758,758,0,48719,25793
759,759,0,49090,25793
760,760,0,60263,25793
761,761,0,60365,25793
762,762,0,64051,24129
763,763,0,48069,24129
764,764,0,64350,24129
765,765,0,65187,24129
766,766,0,65480,24129
767,767,0,48766,49922
768,768,0,44721,49922
769,769,0,43885,49922
770,770,0,65262,49922
771,771,0,61206,49922
772,772,0,61431,8515
773,773,0,65474,8515
774,774,0,61042,8515
775,775,0,64149,8515
776,776,0,64479,8515
777,777,0,65189,58437
778,778,0,44892,58437
779,779,0,44946,58437
780,780,0,48081,58437
781,781,0,47900,58437
782,782,0,64111,1416
783,783,0,61430,1416
784,784,0,61262,1416
785,785,0,64223,1416
786,786,0,47634,1416
787,787,0,44798,59853
788,788,0,44689,59853
789,789,0,45015,59853
790,790,0,44829,59853
791,791,0,43536,59853
792,792,0,43987,61269
793,793,0,44830,61269
794,794,0,48723,61269
795,795,0,49126,61269
796,796,0,60973,61269
797,797,0,65393,55586
798,798,0,65030,55586
799,799,0,65486,55586
800,800,0,65265,55586
801,801,0,64486,55586
802,802,0,60990,51319
803,803,0,65526,51319
804,804,0,61341,51319
805,805,0,44702,51319
806,806,0,48768,51319
807,807,0,65416,41369
808,808,0,64095,41369
809,809,0,60017,41369
810,810,0,44790,41369
811,811,0,60271,41369
812,812,0,61062,27152
813,813,0,60236,27152
814,814,0,64495,27152
815,815,0,64310,27152
816,816,0,65437,27152
817,817,0,64415,2985
818,818,0,61266,2985
819,819,0,59966,2985
820,820,0,61263,2985
821,821,0,65333,2985
822,822,0,60236,30137
823,823,0,65219,30137
824,824,0,60371,30137
825,825,0,64318,30137
826,826,0,59409,30137
827,827,0,61255,33122
828,828,0,60238,33122
829,829,0,65104,33122
830,830,0,64467,33122
831,831,0,65149,33122
832,832,0,60387,63259
833,833,0,0,63259
834,834,0,418,63259
835,835,0,2876,63259
836,836,0,3970,63259
837,837,0,2922,30845
838,838,0,10141,30845
839,839,0,12075,30845
840,840,0,11210,30845
841,841,0,11113,30845
842,842,0,12249,28568
843,843,0,12270,28568
844,844,0,12238,28568
845,845,0,27513,28568
846,846,0,47691,28568
847,847,0,48937,59413
848,848,0,48978,59413
849,849,0,64364,59413
850,850,0,49033,59413
851,851,0,49080,59413
852,852,0,49006,22445
853,853,0,59947,22445
854,854,0,65241,22445
855,855,0,65516,22445
856,856,0,48863,22445
857,857,0,65458,16322
858,858,0,59983,16322
859,859,0,65451,16322
860,860,0,65042,16322
861,861,0,47949,16322
862,862,0,65503,38767
863,863,0,45018,38767
864,864,0,65490,38767
865,865,0,65067,38767
866,866,0,65369,38767
867,867,0,61260,55089
868,868,0,65116,55089
869,869,0,65306,55089
870,870,0,64335,55089
871,871,0,65276,55089
872,872,0,45050,28320
873,873,0,65529,28320
874,874,0,61257,28320
875,875,0,65467,28320
876,876,0,44908,28320
877,877,0,65084,17873
878,878,0,65243,17873
879,879,0,65357,17873
880,880,0,65438,17873
881,881,0,65210,17873
882,882,0,45037,46193
883,883,0,60328,46193
884,884,0,49115,46193
885,885,0,65266,46193
886,886,0,65247,46193
887,887,0,65499,64066
888,888,0,48990,64066
889,889,0,49000,64066
890,890,0,65402,64066
891,891,0,64249,64066
892,892,0,64201,44723
893,893,0,65212,44723
894,894,0,64346,44723
895,895,0,65407,44723
896,896,0,65371,44723
897,897,0,45006,43253
898,898,0,65122,43253
899,899,0,65212,43253
900,900,0,65518,43253
901,901,0,61154,43253
902,902,0,65372,22440
903,903,0,60955,22440
904,904,0,65257,22440
905,905,0,65468,22440
906,906,0,49135,22440
907,907,0,65289,157
908,908,0,64316,157
909,909,0,45010,157
910,910,0,65257,157
911,911,0,65215,157
912,912,0,65307,22597
913,913,0,65323,22597
914,914,0,65314,22597
915,915,0,65275,22597
916,916,0,44938,22597
917,917,0,49116,22754
918,918,0,61241,22754
919,919,0,65387,22754
920,920,0,65404,22754
921,921,0,65228,22754
922,922,0,65514,45351
923,923,0,65225,45351
924,924,0,65343,45351
925,925,0,44011,45351
