Sample in Buffer,Sample in Window,TRIGGER,freq_1[15:0],debug_1[15:0]
Radix - UNSIGNED,UNSIGNED,UNSIGNED,UNSIGNED,UNSIGNED
0,0,0,8668,16514
1,1,0,8723,15331
2,2,0,656,15331
3,3,0,776,15331
4,4,0,9157,15331
5,5,0,9277,15331
6,6,0,9400,31845
7,7,0,1328,31845
8,8,0,9643,31845
9,9,0,9767,31845
10,10,0,9888,31845
11,11,0,10008,47176
12,12,0,1942,47176
13,13,0,2065,47176
14,14,0,2185,47176
15,15,0,2304,47176
16,16,0,10622,13485
17,17,0,10744,13485
18,18,0,10865,13485
19,19,0,2728,13485
20,20,0,11110,13485
21,21,0,11232,60661
22,22,0,11355,60661
23,23,0,11476,60661
24,24,0,11598,60661
25,25,0,11721,60661
26,26,0,3587,8610
27,27,0,3769,8610
28,28,0,3888,8610
29,29,0,12208,8610
30,30,0,0,8610
31,31,0,120,3735
32,32,0,178,3735
33,33,0,297,3735
34,34,0,486,3735
35,35,0,608,3735
36,36,0,730,12345
37,37,0,853,12345
38,38,0,975,12345
39,39,0,1024,12345
40,40,0,1154,12345
41,41,0,1340,16080
42,42,0,1463,16080
43,43,0,1584,16080
44,44,0,1704,16080
45,45,0,1828,16080
46,46,0,1946,28425
47,47,0,2073,28425
48,48,0,2192,28425
49,49,0,2312,28425
50,50,0,2434,28425
51,51,0,2561,44505
52,52,0,2683,44505
53,53,0,2804,44505
54,54,0,2926,44505
55,55,0,2985,44505
56,56,0,3171,7394
57,57,0,3225,7394
58,58,0,3344,7394
59,59,0,3536,7394
60,60,0,3594,7394
61,61,0,3780,51899
62,62,0,3903,51899
63,63,0,4024,51899
64,64,0,4146,51899
65,65,0,4268,51899
66,66,0,4386,59293
67,67,0,4513,59293
68,68,0,4633,59293
69,69,0,4752,59293
70,70,0,4878,59293
71,71,0,4992,45656
72,72,0,5122,45656
73,73,0,5177,45656
74,74,0,5297,45656
75,75,0,5416,45656
76,76,0,5608,39413
77,77,0,5664,39413
78,78,0,5855,39413
79,79,0,5975,39413
80,80,0,6033,39413
81,81,0,6216,19533
82,82,0,6342,19533
83,83,0,6464,19533
84,84,0,6585,19533
85,85,0,6704,19533
86,86,0,6825,58946
87,87,0,6944,58946
88,88,0,7074,58946
89,89,0,7195,58946
90,90,0,7313,58946
91,91,0,7432,12943
92,92,0,7560,12943
93,93,0,7684,12943
94,94,0,7737,12943
95,95,0,7927,12943
96,96,0,7985,6353
97,97,0,8168,6353
98,98,0,8294,6353
99,99,0,222,6353
100,100,0,8537,6353
101,101,0,402,19296
102,102,0,521,19296
103,103,0,708,19296
104,104,0,824,19296
105,105,0,9146,19296
106,106,0,9268,25649
107,107,0,1195,25649
108,108,0,1321,25649
109,109,0,9632,25649
110,110,0,1560,25649
111,111,0,9878,44945
112,112,0,10001,44945
113,113,0,10123,44945
114,114,0,10241,44945
115,115,0,10366,44945
116,116,0,2224,5058
117,117,0,10610,5058
118,118,0,10733,5058
119,119,0,2593,5058
120,120,0,10975,5058
121,121,0,11032,50003
122,122,0,2960,50003
123,123,0,3150,50003
124,124,0,3203,50003
125,125,0,3329,50003
126,126,0,11704,55061
127,127,0,11830,55061
128,128,0,11952,55061
129,129,0,12073,55061
130,130,0,12195,55061
131,131,0,0,39528
132,132,0,121,39528
133,133,0,243,39528
134,134,0,360,39528
135,135,0,486,39528
136,136,0,544,29053
137,137,0,666,29053
138,138,0,785,29053
139,139,0,972,29053
140,140,0,1032,29053
141,141,0,1218,3045
142,142,0,1340,3045
143,143,0,1463,3045
144,144,0,1580,3045
145,145,0,1706,3045
146,146,0,1824,32098
147,147,0,1950,32098
148,148,0,2073,32098
149,149,0,2193,32098
150,150,0,2312,32098
151,151,0,2438,35143
152,152,0,2816,35143
153,153,0,2683,35143
154,154,0,2736,35143
155,155,0,2926,35143
156,156,0,3048,1705
157,157,0,3106,1705
158,158,0,3225,1705
159,159,0,3412,1705
160,160,0,3536,1705
161,161,0,3658,36848
162,162,0,3781,36848
163,163,0,3901,36848
164,164,0,4020,36848
165,165,0,4144,36848
166,166,0,4268,38553
167,167,0,4386,38553
168,168,0,4513,38553
169,169,0,4632,38553
170,170,0,4752,38553
171,171,0,4876,9865
172,172,0,5001,9865
173,173,0,5123,9865
174,174,0,5240,9865
175,175,0,5298,9865
176,176,0,5488,48418
177,177,0,5546,48418
178,178,0,5665,48418
179,179,0,5852,48418
180,180,0,5912,48418
181,181,0,6098,58283
182,182,0,6221,58283
183,183,0,6343,58283
184,184,0,6456,58283
185,185,0,6586,58283
186,186,0,6708,41165
187,187,0,6826,41165
188,188,0,6953,41165
189,189,0,7072,41165
190,190,0,7196,41165
191,191,0,7316,33912
192,192,0,7440,33912
193,193,0,7563,33912
194,194,0,7680,33912
195,195,0,7804,33912
196,196,0,7864,9541
197,197,0,7986,9541
198,198,0,8105,9541
199,199,0,8292,9541
200,200,0,152,9541
201,201,0,8536,43453
202,202,0,8660,43453
203,203,0,8783,43453
204,204,0,8900,43453
205,205,0,9024,43453
206,206,0,9144,52994
207,207,0,9268,52994
208,208,0,9392,52994
209,209,0,9513,52994
210,210,0,9635,52994
211,211,0,1561,30911
212,212,0,9876,30911
213,213,0,1810,30911
214,214,0,10123,30911
215,215,0,2049,30911
216,216,0,10367,18369
217,217,0,2232,18369
218,218,0,2352,18369
219,219,0,10732,18369
220,220,0,2595,18369
221,221,0,10977,49280
222,222,0,11096,49280
223,223,0,11220,49280
224,224,0,11342,49280
225,225,0,11465,49280
226,226,0,11587,2113
227,227,0,11708,2113
228,228,0,11832,2113
229,229,0,11952,2113
230,230,0,12075,2113
231,231,0,4001,51393
232,232,0,0,51393
233,233,0,121,51393
234,234,0,177,51393
235,235,0,296,51393
236,236,0,486,53506
237,237,0,608,53506
238,238,0,731,53506
239,239,0,848,53506
240,240,0,972,53506
241,241,0,1032,39363
242,242,0,1155,39363
243,243,0,1337,39363
244,244,0,1460,39363
245,245,0,1584,39363
246,246,0,1707,27333
247,247,0,1825,27333
248,248,0,1976,27333
249,249,0,2072,27333
250,250,0,2195,27333
251,251,0,2316,1160
252,252,0,2437,1160
253,253,0,2562,1160
254,254,0,2618,1160
255,255,0,2805,1160
256,256,0,2927,28493
257,257,0,3048,28493
258,258,0,3172,28493
259,259,0,3225,28493
260,260,0,3412,28493
261,261,0,3536,29653
262,262,0,3660,29653
263,263,0,3783,29653
264,264,0,3903,29653
265,265,0,4024,29653
266,266,0,4144,58146
267,267,0,4270,58146
268,268,0,4393,58146
269,269,0,4513,58146
270,270,0,4632,58146
271,271,0,4758,22263
272,272,0,4880,22263
273,273,0,5003,22263
274,274,0,5120,22263
275,275,0,5246,22263
276,276,0,5304,14873
277,277,0,5426,14873
278,278,0,5613,14873
279,279,0,5664,14873
280,280,0,5808,14873
281,281,0,5976,37136
282,282,0,6100,37136
283,283,0,6223,37136
284,284,0,6341,37136
285,285,0,6464,37136
286,286,0,6588,52009
287,287,0,6706,52009
288,288,0,6832,52009
289,289,0,6952,52009
290,290,0,7076,52009
291,291,0,7194,23609
292,292,0,7321,23609
293,293,0,7440,23609
294,294,0,7564,23609
295,295,0,7687,23609
296,296,0,7809,10082
297,297,0,7929,10082
298,298,0,8054,10082
299,299,0,8106,10082
300,300,0,41,10082
301,301,0,8419,33691
302,302,0,8472,33691
303,303,0,8600,33691
304,304,0,8785,33691
305,305,0,8907,33691
306,306,0,769,43773
307,307,0,9148,43773
308,308,0,9274,43773
309,309,0,1203,43773
310,310,0,1321,43773
311,311,0,9635,11928
312,312,0,9760,11928
313,313,0,1688,11928
314,314,0,10004,11928
315,315,0,10127,11928
316,316,0,2057,55701
317,317,0,10369,55701
318,318,0,10494,55701
319,319,0,2355,55701
320,320,0,2481,55701
321,321,0,10859,2093
322,322,0,10980,2093
323,323,0,11104,2093
324,324,0,2969,2093
325,325,0,11344,2093
326,326,0,3209,57794
327,327,0,3328,57794
328,328,0,3459,57794
329,329,0,11835,57794
330,330,0,3761,57794
331,331,0,3880,59887
332,332,0,12200,59887
333,333,0,0,59887
334,334,0,119,59887
335,335,0,176,59887
336,336,0,360,52145
337,337,0,484,52145
338,338,0,608,52145
339,339,0,665,52145
340,340,0,784,52145
341,341,0,972,46496
342,342,0,1096,46496
343,343,0,1219,46496
344,344,0,1339,46496
345,345,0,1460,46496
346,346,0,1584,33105
347,347,0,1707,33105
348,348,0,1828,33105
349,349,0,1950,33105
350,350,0,2073,33105
351,351,0,2195,14065
352,352,0,2318,14065
353,353,0,2440,14065
354,354,0,2561,14065
355,355,0,2616,14065
356,356,0,2806,47170
357,357,0,2928,47170
358,358,0,3051,47170
359,359,0,3104,47170
360,360,0,3294,47170
361,361,0,3416,61235
362,362,0,3539,61235
363,363,0,3660,61235
364,364,0,3782,61235
365,365,0,3905,61235
366,366,0,4027,42869
367,367,0,4145,42869
368,368,0,4272,42869
369,369,0,4393,42869
370,370,0,4515,42869
371,371,0,4633,38568
372,372,0,4752,38568
373,373,0,4882,38568
374,374,0,5003,38568
375,375,0,5122,38568
376,376,0,5304,15901
377,377,0,5306,15901
378,378,0,5425,15901
379,379,0,5614,15901
380,380,0,5736,15901
381,381,0,5794,54469
382,382,0,5913,54469
383,383,0,6040,54469
384,384,0,6224,54469
385,385,0,6347,54469
386,386,0,6401,4834
387,387,0,6584,4834
388,388,0,6714,4834
389,389,0,6835,4834
390,390,0,6954,4834
391,391,0,7080,59303
392,392,0,7202,59303
393,393,0,7321,59303
394,394,0,7444,59303
395,395,0,7568,59303
396,396,0,7690,64137
397,397,0,7809,64137
398,398,0,7864,64137
399,399,0,8056,64137
400,400,0,8179,64137
401,401,0,41,57904
402,402,0,160,57904
403,403,0,290,57904
404,404,0,8667,57904
405,405,0,528,57904
406,406,0,640,56505
407,407,0,778,56505
408,408,0,897,56505
409,409,0,9276,56505
410,410,0,1208,56505
411,411,0,1330,48873
412,412,0,1449,48873
413,413,0,9764,48873
414,414,0,1712,48873
415,415,0,10011,48873
416,416,0,10132,39842
417,417,0,10255,39842
418,418,0,10378,39842
419,419,0,2306,39842
420,420,0,2361,39842
421,421,0,10743,23179
422,422,0,10864,23179
423,423,0,10988,23179
424,424,0,2849,23179
425,425,0,3036,23179
426,426,0,11352,63021
427,427,0,11476,63021
428,428,0,11599,63021
429,429,0,3524,63021
430,430,0,11842,63021
431,431,0,3768,20664
432,432,0,3891,20664
433,433,0,4016,20664
434,434,0,0,20664
435,435,0,120,20664
436,436,0,179,18149
437,437,0,297,18149
438,438,0,424,18149
439,439,0,609,18149
440,440,0,729,18149
441,441,0,784,38813
442,442,0,976,38813
443,443,0,1099,38813
444,444,0,1152,38813
445,445,0,1338,38813
446,446,0,1464,56962
447,447,0,1587,56962
448,448,0,1708,56962
449,449,0,1826,56962
450,450,0,1953,56962
451,451,0,2075,30239
452,452,0,2196,30239
453,453,0,2320,30239
454,454,0,2440,30239
455,455,0,2560,30239
456,456,0,2686,21665
457,457,0,2808,21665
458,458,0,2931,21665
459,459,0,2984,21665
460,460,0,3107,21665
461,461,0,3296,51904
462,462,0,3416,51904
463,463,0,3474,51904
464,464,0,3595,51904
465,465,0,3720,51904
466,466,0,3840,8033
467,467,0,4026,8033
468,468,0,4152,8033
469,469,0,4274,8033
470,470,0,4396,8033
471,471,0,4519,59937
472,472,0,4640,59937
473,473,0,4764,59937
474,474,0,4881,59937
475,475,0,5008,59937
476,476,0,5130,2434
477,477,0,5249,2434
478,478,0,5120,2434
479,479,0,5496,2434
480,480,0,5619,2434
481,481,0,5740,62371
482,482,0,5864,62371
483,483,0,5987,62371
484,484,0,6040,62371
485,485,0,6162,62371
486,486,0,6353,64805
487,487,0,6475,64805
488,488,0,6598,64805
489,489,0,6714,64805
490,490,0,6841,64805
491,491,0,6963,61640
492,492,0,7086,61640
493,493,0,7209,61640
494,494,0,7329,61640
495,495,0,7448,61640
496,496,0,7574,60909
497,497,0,7696,60909
498,498,0,7816,60909
499,499,0,7936,60909
500,500,0,7994,60909
501,501,0,8184,57013
502,502,0,8307,57013
503,503,0,8428,57013
504,504,0,8550,57013
505,505,0,481,57013
506,506,0,538,52386
507,507,0,657,52386
508,508,0,776,52386
509,509,0,9160,52386
510,510,0,9283,52386
511,511,0,1209,43863
512,512,0,9524,43863
513,513,0,1458,43863
514,514,0,9771,43863
515,515,0,1697,43863
516,516,0,1820,30713
517,517,0,10138,30713
518,518,0,2065,30713
519,519,0,10376,30713
520,520,0,10504,30713
521,521,0,10626,9040
522,522,0,10749,9040
523,523,0,10868,9040
524,524,0,2728,9040
525,525,0,2858,9040
526,526,0,2977,39753
527,527,0,3164,39753
528,528,0,3226,39753
529,529,0,11603,39753
530,530,0,3465,39753
531,531,0,3584,48793
532,532,0,3714,48793
533,533,0,3897,48793
534,534,0,4016,48793
535,535,0,0,48793
536,536,0,48,23010
537,537,0,242,23010
538,538,0,297,23010
539,539,0,484,23010
540,540,0,608,23010
541,541,0,666,6267
542,542,0,785,6267
543,543,0,912,6267
544,544,0,1097,6267
545,545,0,1219,6267
546,546,0,1340,29277
547,547,0,1464,29277
548,548,0,1587,29277
549,549,0,1704,29277
550,550,0,1830,29277
551,551,0,1968,35544
552,552,0,2075,35544
553,553,0,2196,35544
554,554,0,2318,35544
555,555,0,2440,35544
556,556,0,2563,64821
557,557,0,2616,64821
558,558,0,2808,64821
559,559,0,2865,64821
560,560,0,3048,64821
561,561,0,3172,34829
562,562,0,3296,34829
563,563,0,3419,34829
564,564,0,3472,34829
565,565,0,3595,34829
566,566,0,3784,34114
567,567,0,3907,34114
568,568,0,4026,34114
569,569,0,4146,34114
570,570,0,4273,34114
571,571,0,4392,3407
572,572,0,4518,3407
573,573,0,4641,3407
574,574,0,4760,3407
575,575,0,4880,3407
576,576,0,5002,37521
577,577,0,5129,37521
578,578,0,5248,37521
579,579,0,5304,37521
580,580,0,5427,37521
581,581,0,5617,40928
582,582,0,5736,40928
583,583,0,5794,40928
584,584,0,5915,40928
585,585,0,6040,40928
586,586,0,6160,12913
587,587,0,6282,12913
588,588,0,6408,12913
589,589,0,6592,12913
590,590,0,6716,12913
591,591,0,6835,53841
592,592,0,6960,53841
593,593,0,7084,53841
594,594,0,7205,53841
595,595,0,7344,53841
596,596,0,7450,1218
597,597,0,7573,1218
598,598,0,7688,1218
599,599,0,7816,1218
600,600,0,7939,1218
601,601,0,7993,55059
602,602,0,8112,55059
603,603,0,50,55059
604,604,0,8427,55059
605,605,0,8548,55059
606,606,0,440,56277
607,607,0,602,56277
608,608,0,657,56277
609,609,0,9036,56277
610,610,0,9096,56277
611,611,0,9282,45800
612,612,0,9404,45800
613,613,0,9525,45800
614,614,0,1448,45800
615,615,0,1578,45800
616,616,0,1701,36541
617,617,0,10013,36541
618,618,0,1946,36541
619,619,0,10259,36541
620,620,0,2185,36541
621,621,0,10501,16805
622,622,0,10626,16805
623,623,0,10748,16805
624,624,0,2609,16805
625,625,0,2728,16805
626,626,0,11112,53346
627,627,0,2976,53346
628,628,0,11359,53346
629,629,0,11477,53346
630,630,0,11600,53346
631,631,0,11724,4615
632,632,0,3586,4615
633,633,0,3713,4615
634,634,0,12090,4615
635,635,0,12212,4615
636,636,0,0,57961
637,637,0,121,57961
638,638,0,176,57961
639,639,0,296,57961
640,640,0,487,57961
641,641,0,545,62576
642,642,0,664,62576
643,643,0,786,62576
644,644,0,975,62576
645,645,0,1032,62576
646,646,0,1152,55001
647,647,0,1338,55001
648,648,0,1464,55001
649,649,0,1586,55001
650,650,0,1709,55001
651,651,0,1831,52041
652,652,0,1954,52041
653,653,0,2076,52041
654,654,0,2193,52041
655,655,0,2320,52041
656,656,0,2442,41506
657,657,0,2565,41506
658,658,0,2744,41506
659,659,0,2808,41506
660,660,0,2867,41506
661,661,0,2985,28011
662,662,0,3104,28011
663,663,0,3234,28011
664,664,0,3419,28011
665,665,0,3540,28011
666,666,0,3584,3981
667,667,0,3722,3981
668,668,0,3841,3981
669,669,0,4028,3981
670,670,0,4152,3981
671,671,0,4274,31992
672,672,0,4393,31992
673,673,0,4512,31992
674,674,0,4640,31992
675,675,0,4763,31992
676,676,0,4881,35973
677,677,0,5004,35973
678,678,0,5130,35973
679,679,0,5251,35973
680,680,0,5372,35973
681,681,0,5492,2429
682,682,0,5554,2429
683,683,0,5673,2429
684,684,0,5862,2429
685,685,0,5985,2429
686,686,0,6043,38402
687,687,0,6161,38402
688,688,0,6352,38402
689,689,0,6473,38402
690,690,0,6595,38402
691,691,0,6716,40831
692,692,0,6840,40831
693,693,0,6963,40831
694,694,0,7080,40831
695,695,0,7202,40831
696,696,0,7328,13697
697,697,0,7451,13697
698,698,0,7574,13697
699,699,0,7690,13697
700,700,0,7817,13697
701,701,0,7939,54528
702,702,0,8062,54528
703,703,0,8185,54528
704,704,0,49,54528
705,705,0,168,54528
706,706,0,290,2689
707,707,0,8673,2689
708,708,0,536,2689
709,709,0,656,2689
710,710,0,778,2689
711,711,0,9161,57217
712,712,0,1024,57217
713,713,0,1210,57217
714,714,0,1330,57217
715,715,0,9648,57217
716,716,0,1576,59906
717,717,0,1698,59906
718,718,0,1825,59906
719,719,0,10136,59906
720,720,0,2064,59906
721,721,0,2186,51587
722,722,0,2313,51587
723,723,0,2432,51587
724,724,0,10748,51587
725,725,0,10868,51587
726,726,0,10992,45957
727,727,0,2856,45957
728,728,0,11239,45957
729,729,0,3164,45957
730,730,0,11482,45957
731,731,0,3344,32008
732,732,0,11659,32008
733,733,0,11848,32008
734,734,0,11968,32008
735,735,0,12092,32008
736,736,0,12215,12429
737,737,0,0,12429
738,738,0,57,12429
739,739,0,240,12429
740,740,0,364,12429
741,741,0,418,44437
742,742,0,545,44437
743,743,0,664,44437
744,744,0,852,44437
745,745,0,972,44437
746,746,0,1033,56866
747,747,0,1152,56866
748,748,0,1338,56866
749,749,0,1463,56866
750,750,0,1584,56866
751,751,0,1708,35767
752,752,0,1826,35767
753,753,0,1952,35767
754,754,0,2074,35767
755,755,0,2196,35767
756,756,0,2315,27097
757,757,0,2440,27097
758,758,0,2564,27097
759,759,0,2685,27097
760,760,0,2807,27097
761,761,0,2865,62864
762,762,0,2984,62864
763,763,0,3106,62864
764,764,0,3295,62864
765,765,0,3352,62864
766,766,0,3472,24425
767,767,0,3594,24425
768,768,0,3721,24425
769,769,0,3906,24425
770,770,0,4024,24425
771,771,0,4146,21753
772,772,0,4273,21753
773,773,0,4392,21753
774,774,0,4512,21753
775,775,0,4639,21753
776,776,0,4761,46178
777,777,0,4881,46178
778,778,0,5006,46178
779,779,0,5123,46178
780,780,0,5249,46178
781,781,0,5368,2395
782,782,0,5494,2395
783,783,0,5553,2395
784,784,0,5736,2395
785,785,0,5792,2395
786,786,0,5914,48573
787,787,0,6041,48573
788,788,0,6160,48573
789,789,0,6348,48573
790,790,0,6403,48573
791,791,0,6593,50968
792,792,0,6712,50968
793,793,0,6838,50968
794,794,0,6954,50968
795,795,0,7081,50968
796,796,0,7201,34005
797,797,0,7324,34005
798,798,0,7448,34005
799,799,0,7569,34005
800,800,0,7688,34005
801,801,0,7812,19437
802,802,0,7936,19437
803,803,0,8059,19437
804,804,0,8112,19437
805,805,0,8302,19437
806,806,0,168,53442
807,807,0,290,53442
808,808,0,409,53442
809,809,0,8720,53442
810,810,0,648,53442
811,811,0,9034,7343
812,812,0,9156,7343
813,813,0,9279,7343
814,814,0,1200,7343
815,815,0,9522,7343
816,816,0,1448,60785
817,817,0,1570,60785
818,818,0,1697,60785
819,819,0,1816,60785
820,820,0,1936,60785
821,821,0,10252,2592
822,822,0,10376,2592
823,823,0,10499,2592
824,824,0,10616,2592
825,825,0,10742,2592
826,826,0,10864,63377
827,827,0,10987,63377
828,828,0,11108,63377
829,829,0,11230,63377
830,830,0,11352,63377
831,831,0,3218,433
832,832,0,3337,433
833,833,0,3456,433
834,834,0,3600,433
835,835,0,11963,433
836,836,0,3889,63810
837,837,0,12207,63810
838,838,0,0,63810
839,839,0,115,63810
840,840,0,177,63810
841,841,0,296,64243
842,842,0,486,64243
843,843,0,608,64243
844,844,0,665,64243
845,845,0,784,64243
846,846,0,972,62517
847,847,0,1032,62517
848,848,0,1219,62517
849,849,0,1336,62517
850,850,0,1462,62517
851,851,0,1576,61224
852,852,0,1706,61224
853,853,0,1825,61224
854,854,0,1948,61224
855,855,0,2072,61224
856,856,0,2194,58205
857,857,0,2317,58205
858,858,0,2432,58205
859,859,0,2816,58205
860,860,0,2618,58205
861,861,0,2804,53893
862,862,0,2925,53893
863,863,0,3048,53893
864,864,0,3106,53893
865,865,0,3225,53893
866,866,0,3415,46562
867,867,0,3536,46562
868,868,0,3660,46562
869,869,0,3781,46562
870,870,0,3903,46562
871,871,0,4024,34919
872,872,0,4144,34919
873,873,0,4266,34919
874,874,0,4391,34919
875,875,0,4512,34919
876,876,0,4632,15945
877,877,0,4754,15945
878,878,0,4881,15945
879,879,0,5000,15945
880,880,0,5124,15945
881,881,0,5178,50864
882,882,0,5369,50864
883,883,0,5488,50864
884,884,0,5544,50864
885,885,0,5734,50864
886,886,0,5856,1273
887,887,0,5979,1273
888,888,0,6100,1273
889,889,0,6222,1273
890,890,0,6344,1273
891,891,0,6402,52137
892,892,0,6585,52137
893,893,0,6704,52137
894,894,0,6832,52137
895,895,0,6955,52137
896,896,0,7077,53410
897,897,0,7199,53410
898,898,0,7320,53410
899,899,0,7442,53410
900,900,0,7564,53410
901,901,0,7682,40011
902,902,0,7809,40011
903,903,0,7864,40011
904,904,0,8052,40011
905,905,0,8106,40011
906,906,0,105,27885
907,907,0,8419,27885
908,908,0,8540,27885
909,909,0,8662,27885
910,910,0,8785,27885
911,911,0,8906,2360
912,912,0,9029,2360
913,913,0,9151,2360
914,914,0,9271,2360
915,915,0,9392,2360
916,916,0,1320,30245
917,917,0,9636,30245
918,918,0,9760,30245
919,919,0,1689,30245
920,920,0,10000,30245
921,921,0,1928,32605
922,922,0,2056,32605
923,923,0,2179,32605
924,924,0,10491,32605
925,925,0,10612,32605
926,926,0,10733,62850
927,927,0,10856,62850
928,928,0,10980,62850
929,929,0,11100,62850
930,930,0,11155,62850
931,931,0,3089,29919
932,932,0,11467,29919
933,933,0,11588,29919
934,934,0,3514,29919
935,935,0,11832,29919
936,936,0,3762,27233
937,937,0,12077,27233
938,938,0,12199,27233
939,939,0,0,27233
940,940,0,120,27233
941,941,0,178,57152
942,942,0,297,57152
943,943,0,416,57152
944,944,0,560,57152
945,945,0,666,57152
946,946,0,785,18849
947,947,0,972,18849
948,948,0,1098,18849
949,949,0,1154,18849
950,950,0,1337,18849
951,951,0,1463,10465
952,952,0,1586,10465
953,953,0,1708,10465
954,954,0,1829,10465
955,955,0,1968,10465
956,956,0,2072,29314
957,957,0,2196,29314
958,958,0,2319,29314
959,959,0,2436,29314
960,960,0,2560,29314
961,961,0,2616,39779
962,962,0,2738,39779
963,963,0,2929,39779
964,964,0,3048,39779
965,965,0,3104,39779
