Sample in Buffer,Sample in Window,TRIGGER,freq_1[15:0],debug_1[15:0]
Radix - UNSIGNED,UNSIGNED,UNSIGNED,UNSIGNED,UNSIGNED
0,0,0,417,22295
1,1,0,463,35513
2,2,0,510,35513
3,3,0,556,35513
4,4,0,602,35513
5,5,0,649,35513
6,6,0,695,57808
7,7,0,742,57808
8,8,0,788,57808
9,9,0,834,57808
10,10,0,881,57808
11,11,0,927,27785
12,12,0,974,27785
13,13,0,1020,27785
14,14,0,1066,27785
15,15,0,1113,27785
16,16,0,1159,20057
17,17,0,1206,20057
18,18,0,1252,20057
19,19,0,1298,20057
20,20,0,1345,20057
21,21,0,1391,47842
22,22,0,1437,47842
23,23,0,1484,47842
24,24,0,1530,47842
25,25,0,1577,47842
26,26,0,1623,2363
27,27,0,1669,2363
28,28,0,1716,2363
29,29,0,1762,2363
30,30,0,1808,2363
31,31,0,1855,50205
32,32,0,1901,50205
33,33,0,1948,50205
34,34,0,1994,50205
35,35,0,2040,50205
36,36,0,2087,52568
37,37,0,2133,52568
38,38,0,2180,52568
39,39,0,2226,52568
40,40,0,2272,52568
41,41,0,2319,37237
42,42,0,2365,37237
43,43,0,2412,37237
44,44,0,2458,37237
45,45,0,2504,37237
46,46,0,2551,24269
47,47,0,2597,24269
48,48,0,2644,24269
49,49,0,2690,24269
50,50,0,2736,24269
51,51,0,2783,61506
52,52,0,2829,61506
53,53,0,2876,61506
54,54,0,2922,61506
55,55,0,2968,61506
56,56,0,3014,20239
57,57,0,3061,20239
58,58,0,3108,20239
59,59,0,3154,20239
60,60,0,3200,20239
61,61,0,3246,16209
62,62,0,3293,16209
63,63,0,3340,16209
64,64,0,3385,16209
65,65,0,3432,16209
66,66,0,3478,36448
67,67,0,3525,36448
68,68,0,3570,36448
69,69,0,3617,36448
70,70,0,3664,36448
71,71,0,3710,52657
72,72,0,3757,52657
73,73,0,3800,52657
74,74,0,3850,52657
75,75,0,3896,52657
76,76,0,3942,23569
77,77,0,3989,23569
78,78,0,4036,23569
79,79,0,4082,23569
80,80,0,4128,23569
81,81,0,4174,10690
82,82,0,4221,10690
83,83,0,4264,10690
84,84,0,4312,10690
85,85,0,4360,10690
86,86,0,4406,34259
87,87,0,4453,34259
88,88,0,4499,34259
89,89,0,4545,34259
90,90,0,4592,34259
91,91,0,4638,44949
92,92,0,0,44949
93,93,0,45,44949
94,94,0,91,44949
95,95,0,138,44949
96,96,0,184,13672
97,97,0,231,13672
98,98,0,277,13672
99,99,0,323,13672
100,100,0,370,13672
101,101,0,416,58621
102,102,0,463,58621
103,103,0,509,58621
104,104,0,555,58621
105,105,0,602,58621
106,106,0,648,6757
107,107,0,695,6757
108,108,0,741,6757
109,109,0,787,6757
110,110,0,834,6757
111,111,0,880,65378
112,112,0,926,65378
113,113,0,973,65378
114,114,0,1019,65378
115,115,0,1065,65378
116,116,0,1112,6599
117,117,0,1158,6599
118,118,0,1205,6599
119,119,0,1251,6599
120,120,0,1297,6599
121,121,0,1356,6441
122,122,0,1390,6441
123,123,0,1437,6441
124,124,0,1483,6441
125,125,0,1529,6441
126,126,0,1574,13040
127,127,0,1622,13040
128,128,0,1669,13040
129,129,0,1715,13040
130,130,0,1761,13040
131,131,0,1808,19481
132,132,0,1854,19481
133,133,0,1901,19481
134,134,0,1947,19481
135,135,0,1993,19481
136,136,0,2040,32521
137,137,0,2086,32521
138,138,0,2133,32521
139,139,0,2179,32521
140,140,0,2226,32521
141,141,0,2272,52002
142,142,0,2318,52002
143,143,0,2365,52002
144,144,0,2411,52002
145,145,0,2458,52002
146,146,0,2504,18987
147,147,0,2550,18987
148,148,0,2597,18987
149,149,0,2643,18987
150,150,0,2690,18987
151,151,0,2736,5453
152,152,0,2782,5453
153,153,0,2829,5453
154,154,0,2875,5453
155,155,0,2922,5453
156,156,0,2968,24440
157,157,0,3015,24440
158,158,0,3061,24440
159,159,0,3107,24440
160,160,0,3154,24440
161,161,0,3200,29893
162,162,0,3247,29893
163,163,0,3293,29893
164,164,0,3339,29893
165,165,0,3386,29893
166,166,0,3432,54333
167,167,0,3479,54333
168,168,0,3525,54333
169,169,0,3571,54333
170,170,0,3618,54333
171,171,0,3664,18690
172,172,0,3711,18690
173,173,0,3757,18690
174,174,0,3803,18690
175,175,0,3850,18690
176,176,0,3896,7487
177,177,0,3943,7487
178,178,0,3989,7487
179,179,0,4035,7487
180,180,0,4082,7487
181,181,0,4128,26177
182,182,0,4175,26177
183,183,0,4222,26177
184,184,0,4267,26177
185,185,0,4314,26177
186,186,0,4360,33664
187,187,0,4407,33664
188,188,0,4453,33664
189,189,0,4499,33664
190,190,0,4546,33664
191,191,0,4592,59841
192,192,0,4639,59841
193,193,0,0,59841
194,194,0,45,59841
195,195,0,91,59841
196,196,0,138,27969
197,197,0,184,27969
198,198,0,231,27969
199,199,0,277,27969
200,200,0,323,27969
201,201,0,370,22274
202,202,0,416,22274
203,203,0,463,22274
204,204,0,509,22274
205,205,0,554,22274
206,206,0,602,50243
207,207,0,648,50243
208,208,0,695,50243
209,209,0,741,50243
210,210,0,784,50243
211,211,0,834,6981
212,212,0,881,6981
213,213,0,927,6981
214,214,0,973,6981
215,215,0,1020,6981
216,216,0,1066,57224
217,217,0,1113,57224
218,218,0,1159,57224
219,219,0,1205,57224
220,220,0,1252,57224
221,221,0,1298,64205
222,222,0,1345,64205
223,223,0,1404,64205
224,224,0,1438,64205
225,225,0,1484,64205
226,226,0,1530,55893
227,227,0,1577,55893
228,228,0,1624,55893
229,229,0,1670,55893
230,230,0,1716,55893
231,231,0,1763,54562
232,232,0,1809,54562
233,233,0,1856,54562
234,234,0,1902,54562
235,235,0,1948,54562
236,236,0,1995,44919
237,237,0,2041,44919
238,238,0,2088,44919
239,239,0,2134,44919
240,240,0,2180,44919
241,241,0,2227,33945
242,242,0,2273,33945
243,243,0,2320,33945
244,244,0,2366,33945
245,245,0,2412,33945
246,246,0,2459,13328
247,247,0,2505,13328
248,248,0,2552,13328
249,249,0,2598,13328
250,250,0,2644,13328
251,251,0,2691,47273
252,252,0,2737,47273
253,253,0,2784,47273
254,254,0,2830,47273
255,255,0,2877,47273
256,256,0,2923,60601
257,257,0,2970,60601
258,258,0,3016,60601
259,259,0,3062,60601
260,260,0,3109,60601
261,261,0,3155,42338
262,262,0,3202,42338
263,263,0,3248,42338
264,264,0,3294,42338
265,265,0,3341,42338
266,266,0,3387,37403
267,267,0,3434,37403
268,268,0,3480,37403
269,269,0,3526,37403
270,270,0,3573,37403
271,271,0,3619,14205
272,272,0,3666,14205
273,273,0,3713,14205
274,274,0,3759,14205
275,275,0,3805,14205
276,276,0,3851,51608
277,277,0,3898,51608
278,278,0,3945,51608
279,279,0,3991,51608
280,280,0,4037,51608
281,281,0,4082,277
282,282,0,4130,277
283,283,0,4177,277
284,284,0,4223,277
285,285,0,4269,277
286,286,0,4316,51885
287,287,0,4362,51885
288,288,0,4409,51885
289,289,0,4455,51885
290,290,0,4502,51885
291,291,0,4548,52162
292,292,0,4595,52162
293,293,0,4641,52162
294,294,0,0,52162
295,295,0,46,52162
296,296,0,92,38511
297,297,0,139,38511
298,298,0,185,38511
299,299,0,231,38511
300,300,0,278,38511
301,301,0,324,25137
302,302,0,371,25137
303,303,0,418,25137
304,304,0,463,25137
305,305,0,510,25137
306,306,0,556,63648
307,307,0,603,63648
308,308,0,650,63648
309,309,0,692,63648
310,310,0,742,63648
311,311,0,789,23249
312,312,0,835,23249
313,313,0,882,23249
314,314,0,928,23249
315,315,0,974,23249
316,316,0,1021,21361
317,317,0,1067,21361
318,318,0,1114,21361
319,319,0,1160,21361
320,320,0,1207,21361
321,321,0,1253,44610
322,322,0,1299,44610
323,323,0,1346,44610
324,324,0,1392,44610
325,325,0,1439,44610
326,326,0,1485,435
327,327,0,1530,435
328,328,0,1578,435
329,329,0,1624,435
330,330,0,1671,435
331,331,0,1717,45045
332,332,0,1764,45045
333,333,0,1810,45045
334,334,0,1856,45045
335,335,0,1903,45045
336,336,0,1949,45480
337,337,0,1996,45480
338,338,0,2042,45480
339,339,0,2088,45480
340,340,0,2135,45480
341,341,0,2181,24989
342,342,0,2228,24989
343,343,0,2274,24989
344,344,0,2320,24989
345,345,0,2367,24989
346,346,0,2413,4933
347,347,0,2460,4933
348,348,0,2507,4933
349,349,0,2552,4933
350,350,0,2599,4933
351,351,0,2645,29922
352,352,0,2692,29922
353,353,0,2738,29922
354,354,0,2784,29922
355,355,0,2831,29922
356,356,0,2877,34855
357,357,0,2924,34855
358,358,0,2970,34855
359,359,0,3016,34855
360,360,0,3063,34855
361,361,0,3109,64777
362,362,0,3156,64777
363,363,0,3203,64777
364,364,0,3248,64777
365,365,0,3295,64777
366,366,0,3341,34096
367,367,0,3388,34096
368,368,0,3435,34096
369,369,0,3481,34096
370,370,0,3527,34096
371,371,0,3574,33337
372,372,0,3620,33337
373,373,0,3667,33337
374,374,0,3713,33337
375,375,0,3775,33337
376,376,0,3806,1897
377,377,0,3852,1897
378,378,0,3899,1897
379,379,0,3945,1897
380,380,0,3996,1897
381,381,0,4038,35234
382,382,0,4084,35234
383,383,0,4131,35234
384,384,0,4177,35234
385,385,0,4224,35234
386,386,0,4270,37131
387,387,0,4317,37131
388,388,0,4363,37131
389,389,0,4409,37131
390,390,0,4456,37131
391,391,0,4502,6829
392,392,0,4549,6829
393,393,0,4592,6829
394,394,0,4641,6829
395,395,0,0,6829
396,396,0,45,43960
397,397,0,92,43960
398,398,0,139,43960
399,399,0,185,43960
400,400,0,231,43960
401,401,0,278,50789
402,402,0,324,50789
403,403,0,371,50789
404,404,0,417,50789
405,405,0,463,50789
406,406,0,510,29213
407,407,0,556,29213
408,408,0,603,29213
409,409,0,649,29213
410,410,0,696,29213
411,411,0,742,14466
412,412,0,789,14466
413,413,0,835,14466
414,414,0,881,14466
415,415,0,932,14466
416,416,0,974,43679
417,417,0,1021,43679
418,418,0,1067,43679
419,419,0,1113,43679
420,420,0,1160,43679
421,421,0,1206,58145
422,422,0,1253,58145
423,423,0,1299,58145
424,424,0,1345,58145
425,425,0,1392,58145
426,426,0,1438,36288
427,427,0,1485,36288
428,428,0,1531,36288
429,429,0,1577,36288
430,430,0,1624,36288
431,431,0,1670,28897
432,432,0,1717,28897
433,433,0,1764,28897
434,434,0,1810,28897
435,435,0,1856,28897
436,436,0,1903,65185
437,437,0,1949,65185
438,438,0,1996,65185
439,439,0,2042,65185
440,440,0,2088,65185
441,441,0,2135,28546
442,442,0,2181,28546
443,443,0,2228,28546
444,444,0,2274,28546
445,445,0,2320,28546
446,446,0,2367,28195
447,447,0,2413,28195
448,448,0,2460,28195
449,449,0,2506,28195
450,450,0,2552,28195
451,451,0,2599,56741
452,452,0,2645,56741
453,453,0,2692,56741
454,454,0,2738,56741
455,455,0,2785,56741
456,456,0,2831,19400
457,457,0,2878,19400
458,458,0,2924,19400
459,459,0,2970,19400
460,460,0,3017,19400
461,461,0,3063,10605
462,462,0,3110,10605
463,463,0,3157,10605
464,464,0,3203,10605
465,465,0,3249,10605
466,466,0,3295,30005
467,467,0,3342,30005
468,468,0,3389,30005
469,469,0,3435,30005
470,470,0,3481,30005
471,471,0,3527,40610
472,472,0,3574,40610
473,473,0,3621,40610
474,474,0,3667,40610
475,475,0,3713,40610
476,476,0,3759,5079
477,477,0,3806,5079
478,478,0,3853,5079
479,479,0,3899,5079
480,480,0,3945,5079
481,481,0,3991,45689
482,482,0,4038,45689
483,483,0,4085,45689
484,484,0,4131,45689
485,485,0,4177,45689
486,486,0,4223,50768
487,487,0,4270,50768
488,488,0,4317,50768
489,489,0,4363,50768
490,490,0,4409,50768
491,491,0,4455,30921
492,492,0,4502,30921
493,493,0,4549,30921
494,494,0,4595,30921
495,495,0,4641,30921
496,496,0,0,16153
497,497,0,45,16153
498,498,0,92,16153
499,499,0,138,16153
500,500,0,185,16153
501,501,0,231,47074
502,502,0,277,47074
503,503,0,324,47074
504,504,0,370,47074
505,505,0,417,47074
506,506,0,463,63227
507,507,0,509,63227
508,508,0,556,63227
509,509,0,602,63227
510,510,0,649,63227
511,511,0,695,44765
512,512,0,742,44765
513,513,0,788,44765
514,514,0,834,44765
515,515,0,881,44765
516,516,0,927,42456
517,517,0,974,42456
518,518,0,1020,42456
519,519,0,1066,42456
520,520,0,1113,42456
521,521,0,1159,21685
522,522,0,1206,21685
523,523,0,1252,21685
524,524,0,1298,21685
525,525,0,1345,21685
526,526,0,1391,64141
527,527,0,1438,64141
528,528,0,1484,64141
529,529,0,1530,64141
530,530,0,1577,64141
531,531,0,1623,20290
532,532,0,1670,20290
533,533,0,1716,20290
534,534,0,1762,20290
535,535,0,1809,20290
536,536,0,1855,18895
537,537,0,1902,18895
538,538,0,1948,18895
539,539,0,1994,18895
540,540,0,2041,18895
541,541,0,2087,39185
542,542,0,2134,39185
543,543,0,2180,39185
544,544,0,2226,39185
545,545,0,2273,39185
546,546,0,2319,58080
547,547,0,2366,58080
548,548,0,2412,58080
549,549,0,2458,58080
550,550,0,2505,58080
551,551,0,2551,31729
552,552,0,2598,31729
553,553,0,2644,31729
554,554,0,2690,31729
555,555,0,2737,31729
556,556,0,2783,24273
557,557,0,2830,24273
558,558,0,2876,24273
559,559,0,2922,24273
560,560,0,2969,24273
561,561,0,3015,56002
562,562,0,3062,56002
563,563,0,3108,56002
564,564,0,3154,56002
565,565,0,3201,56002
566,566,0,3247,14739
567,567,0,3294,14739
568,568,0,3340,14739
569,569,0,3386,14739
570,570,0,3433,14739
571,571,0,3479,5205
572,572,0,3526,5205
573,573,0,3572,5205
574,574,0,3618,5205
575,575,0,3665,5205
576,576,0,3711,19944
577,577,0,3757,19944
578,578,0,3804,19944
579,579,0,3850,19944
580,580,0,3896,19944
581,581,0,3943,25149
582,582,0,3989,25149
583,583,0,4036,25149
584,584,0,4082,25149
585,585,0,4128,25149
586,586,0,4174,45093
587,587,0,4221,45093
588,588,0,4268,45093
589,589,0,4314,45093
590,590,0,4360,45093
591,591,0,4406,4706
592,592,0,4453,4706
593,593,0,4496,4706
594,594,0,4544,4706
595,595,0,4592,4706
596,596,0,4638,49799
597,597,0,0,49799
598,598,0,45,49799
599,599,0,91,49799
600,600,0,138,49799
601,601,0,184,54505
602,602,0,231,54505
603,603,0,277,54505
604,604,0,323,54505
605,605,0,370,54505
606,606,0,416,38768
607,607,0,463,38768
608,608,0,509,38768
609,609,0,555,38768
610,610,0,602,38768
611,611,0,648,27737
612,612,0,695,27737
613,613,0,741,27737
614,614,0,787,27737
615,615,0,834,27737
616,616,0,880,969
617,617,0,927,969
618,618,0,973,969
619,619,0,1019,969
620,620,0,1066,969
621,621,0,1112,28706
622,622,0,1158,28706
623,623,0,1205,28706
624,624,0,1251,28706
625,625,0,1297,28706
626,626,0,1391,29675
627,627,0,1390,29675
628,628,0,1437,29675
629,629,0,1483,29675
630,630,0,1529,29675
631,631,0,1575,58381
632,632,0,1622,58381
633,633,0,1669,58381
634,634,0,1714,58381
635,635,0,1761,58381
636,636,0,1807,22520
637,637,0,1854,22520
638,638,0,1900,22520
639,639,0,1946,22520
640,640,0,1992,22520
641,641,0,2039,15365
642,642,0,2085,15365
643,643,0,2132,15365
644,644,0,2178,15365
645,645,0,2225,15365
646,646,0,2271,37885
647,647,0,2317,37885
648,648,0,2364,37885
649,649,0,2410,37885
650,650,0,2457,37885
651,651,0,2503,53250
652,652,0,2549,53250
653,653,0,2596,53250
654,654,0,2642,53250
655,655,0,2688,53250
656,656,0,2735,25599
657,657,0,2781,25599
658,658,0,2828,25599
659,659,0,2874,25599
660,660,0,2920,25599
661,661,0,2967,13313
662,662,0,3013,13313
663,663,0,3060,13313
664,664,0,3105,13313
665,665,0,3152,13313
666,666,0,3198,38912
667,667,0,3245,38912
668,668,0,3291,38912
669,669,0,3337,38912
670,670,0,3388,38912
671,671,0,3430,52225
672,672,0,3477,52225
673,673,0,3523,52225
674,674,0,3569,52225
675,675,0,3616,52225
676,676,0,3662,25601
677,677,0,3709,25601
678,678,0,3755,25601
679,679,0,3801,25601
680,680,0,3848,25601
681,681,0,3894,12290
682,682,0,3941,12290
683,683,0,3987,12290
684,684,0,4033,12290
685,685,0,4092,12290
686,686,0,4126,37891
687,687,0,4172,37891
688,688,0,4219,37891
689,689,0,4265,37891
690,690,0,4311,37891
691,691,0,4358,50181
692,692,0,4404,50181
693,693,0,4451,50181
694,694,0,4497,50181
695,695,0,4543,50181
696,696,0,4590,22536
697,697,0,4636,22536
698,698,0,0,22536
699,699,0,45,22536
700,700,0,91,22536
701,701,0,138,7181
702,702,0,184,7181
703,703,0,231,7181
704,704,0,277,7181
705,705,0,323,7181
706,706,0,369,29717
707,707,0,416,29717
708,708,0,463,29717
709,709,0,509,29717
710,710,0,555,29717
711,711,0,601,36898
712,712,0,648,36898
713,713,0,694,36898
714,714,0,740,36898
715,715,0,787,36898
716,716,0,833,1079
717,717,0,879,1079
718,718,0,926,1079
719,719,0,972,1079
720,720,0,1019,1079
721,721,0,1065,37977
722,722,0,1111,37977
723,723,0,1158,37977
724,724,0,1204,37977
725,725,0,1250,37977
726,726,0,1296,39056
727,727,0,1343,39056
728,728,0,1390,39056
729,729,0,1435,39056
730,730,0,1482,39056
731,731,0,1528,11497
732,732,0,1575,11497
733,733,0,1621,11497
734,734,0,1667,11497
735,735,0,1714,11497
736,736,0,1760,50553
737,737,0,1807,50553
738,738,0,1853,50553
739,739,0,1899,50553
740,740,0,1946,50553
741,741,0,1992,62050
742,742,0,2039,62050
743,743,0,2085,62050
744,744,0,2131,62050
745,745,0,2178,62050
746,746,0,2224,47067
747,747,0,2270,47067
748,748,0,2317,47067
749,749,0,2363,47067
750,750,0,2409,47067
751,751,0,2455,43581
752,752,0,2502,43581
753,753,0,2549,43581
754,754,0,2594,43581
755,755,0,2641,43581
756,756,0,2687,25112
757,757,0,2734,25112
758,758,0,2780,25112
759,759,0,2826,25112
760,760,0,2872,25112
761,761,0,2919,3157
762,762,0,2965,3157
763,763,0,3012,3157
764,764,0,3058,3157
765,765,0,3104,3157
766,766,0,3151,28269
767,767,0,3197,28269
768,768,0,3244,28269
769,769,0,3290,28269
770,770,0,3336,28269
771,771,0,3383,31426
772,772,0,3429,31426
773,773,0,3476,31426
774,774,0,3522,31426
775,775,0,3568,31426
776,776,0,3614,59695
777,777,0,3661,59695
778,778,0,3704,59695
779,779,0,3754,59695
780,780,0,3800,59695
781,781,0,3846,25585
782,782,0,3893,25585
783,783,0,3938,25585
784,784,0,3985,25585
785,785,0,4044,25585
786,786,0,4078,19744
787,787,0,4124,19744
788,788,0,4171,19744
789,789,0,4217,19744
790,790,0,4263,19744
791,791,0,4310,45329
792,792,0,4356,45329
793,793,0,4403,45329
794,794,0,4449,45329
795,795,0,4511,45329
796,796,0,4542,65073
797,797,0,4588,65073
798,798,0,4635,65073
799,799,0,0,65073
800,800,0,45,65073
801,801,0,92,44866
802,802,0,138,44866
803,803,0,185,44866
804,804,0,231,44866
805,805,0,277,44866
806,806,0,323,44403
807,807,0,370,44403
808,808,0,416,44403
809,809,0,462,44403
810,810,0,509,44403
811,811,0,555,23733
812,812,0,602,23733
813,813,0,648,23733
814,814,0,694,23733
815,815,0,741,23733
816,816,0,787,2600
817,817,0,834,2600
818,818,0,880,2600
819,819,0,926,2600
820,820,0,972,2600
821,821,0,1019,26333
822,822,0,1065,26333
823,823,0,1112,26333
824,824,0,1158,26333
825,825,0,1204,26333
826,826,0,1251,28933
827,827,0,1298,28933
828,828,0,1344,28933
829,829,0,1390,28933
830,830,0,1437,28933
831,831,0,1483,55266
832,832,0,1529,55266
833,833,0,1576,55266
834,834,0,1622,55266
835,835,0,1668,55266
836,836,0,1715,18663
837,837,0,1761,18663
838,838,0,1808,18663
839,839,0,1854,18663
840,840,0,1900,18663
841,841,0,1947,8393
842,842,0,1993,8393
843,843,0,2040,8393
844,844,0,2086,8393
845,845,0,2132,8393
846,846,0,2179,27056
847,847,0,2225,27056
848,848,0,2272,27056
849,849,0,2318,27056
850,850,0,2364,27056
851,851,0,2411,35449
852,852,0,2457,35449
853,853,0,2504,35449
854,854,0,2550,35449
855,855,0,2596,35449
856,856,0,2643,62505
857,857,0,2689,62505
858,858,0,2736,62505
859,859,0,2782,62505
860,860,0,2828,62505
861,861,0,2875,32418
862,862,0,2921,32418
863,863,0,2968,32418
864,864,0,3014,32418
865,865,0,3060,32418
866,866,0,3106,29387
867,867,0,3153,29387
868,868,0,3246,29387
869,869,0,3245,29387
870,870,0,3292,29387
871,871,0,3338,61805
872,872,0,3385,61805
873,873,0,3428,61805
874,874,0,3477,61805
875,875,0,3524,61805
876,876,0,3570,25656
877,877,0,3617,25656
878,878,0,3678,25656
879,879,0,3708,25656
880,880,0,3756,25656
881,881,0,3802,21925
882,882,0,3849,21925
883,883,0,3895,21925
884,884,0,3941,21925
885,885,0,3988,21925
886,886,0,4034,47581
887,887,0,4081,47581
888,888,0,4140,47581
889,889,0,4174,47581
890,890,0,4220,47581
891,891,0,4266,3970
892,892,0,4313,3970
893,893,0,4358,3970
894,894,0,4405,3970
895,895,0,4452,3970
896,896,0,4498,51551
897,897,0,4545,51551
898,898,0,4591,51551
899,899,0,4637,51551
900,900,0,0,51551
901,901,0,45,55521
902,902,0,92,55521
903,903,0,139,55521
904,904,0,184,55521
905,905,0,231,55521
906,906,0,277,41536
907,907,0,324,41536
908,908,0,371,41536
909,909,0,416,41536
910,910,0,463,41536
911,911,0,509,31521
912,912,0,556,31521
913,913,0,603,31521
914,914,0,648,31521
915,915,0,695,31521
916,916,0,741,7521
917,917,0,788,7521
918,918,0,835,7521
919,919,0,881,7521
920,920,0,927,7521
921,921,0,974,39042
922,922,0,1020,39042
923,923,0,1067,39042
924,924,0,1113,39042
925,925,0,1159,39042
926,926,0,1204,46563
927,927,0,1252,46563
928,928,0,1299,46563
929,929,0,1345,46563
930,930,0,1391,46563
931,931,0,1438,20069
932,932,0,1484,20069
933,933,0,1531,20069
934,934,0,1577,20069
935,935,0,1623,20069
936,936,0,1669,1096
937,937,0,1716,1096
938,938,0,1763,1096
939,939,0,1809,1096
940,940,0,1855,1096
941,941,0,1902,21165
942,942,0,1948,21165
943,943,0,1995,21165
944,944,0,2041,21165
945,945,0,2084,21165
946,946,0,2134,22261
947,947,0,2181,22261
948,948,0,2227,22261
949,949,0,2273,22261
950,950,0,2320,22261
951,951,0,2366,43426
952,952,0,2413,43426
953,953,0,2459,43426
954,954,0,2505,43426
955,955,0,2556,43426
956,956,0,2598,151
957,957,0,2645,151
958,958,0,2691,151
959,959,0,2737,151
960,960,0,2784,151
961,961,0,2830,43577
962,962,0,2877,43577
963,963,0,2923,43577
964,964,0,2969,43577
965,965,0,3016,43577
966,966,0,3062,43728
967,967,0,3109,43728
968,968,0,3155,43728
969,969,0,3202,43728
970,970,0,3248,43728
971,971,0,3294,21769
972,972,0,3341,21769
973,973,0,3388,21769
974,974,0,3434,21769
