Sample in Buffer,Sample in Window,TRIGGER,freq_1[15:0],debug_1[15:0]
Radix - UNSIGNED,UNSIGNED,UNSIGNED,UNSIGNED,UNSIGNED
0,0,0,4139,47427
1,1,0,4215,47427
2,2,0,4292,47427
3,3,0,4369,7237
4,4,0,4446,7237
5,5,0,4522,7237
6,6,0,4599,7237
7,7,0,4675,7237
8,8,0,4752,54664
9,9,0,4829,54664
10,10,0,4906,54664
11,11,0,4982,54664
12,12,0,5059,54664
13,13,0,5135,61901
14,14,0,5212,61901
15,15,0,5289,61901
16,16,0,5365,61901
17,17,0,5442,61901
18,18,0,5519,51029
19,19,0,5596,51029
20,20,0,5673,51029
21,21,0,5749,51029
22,22,0,5827,51029
23,23,0,5902,47394
24,24,0,5979,47394
25,25,0,6056,47394
26,26,0,6132,47394
27,27,0,6209,47394
28,28,0,6285,32887
29,29,0,6362,32887
30,30,0,6439,32887
31,31,0,6515,32887
32,32,0,6592,32887
33,33,0,6668,14745
34,34,0,6745,14745
35,35,0,6822,14745
36,36,0,6898,14745
37,37,0,6975,14745
38,38,0,7052,47632
39,39,0,7129,47632
40,40,0,7206,47632
41,41,0,7282,47632
42,42,0,7359,47632
43,43,0,7435,62377
44,44,0,7512,62377
45,45,0,7589,62377
46,46,0,7665,62377
47,47,0,0,62377
48,48,0,76,44473
49,49,0,153,44473
50,50,0,230,44473
51,51,0,306,44473
52,52,0,383,44473
53,53,0,460,41314
54,54,0,537,41314
55,55,0,614,41314
56,56,0,689,41314
57,57,0,766,41314
58,58,0,843,20251
59,59,0,920,20251
60,60,0,997,20251
61,61,0,1073,20251
62,62,0,1150,20251
63,63,0,1226,61565
64,64,0,1303,61565
65,65,0,1380,61565
66,66,0,1456,61565
67,67,0,1533,61565
68,68,0,1609,16280
69,69,0,1686,16280
70,70,0,1763,16280
71,71,0,1839,16280
72,72,0,1916,16280
73,73,0,1993,12309
74,74,0,2070,12309
75,75,0,2146,12309
76,76,0,2223,12309
77,77,0,2299,12309
78,78,0,2376,28589
79,79,0,2453,28589
80,80,0,2530,28589
81,81,0,2606,28589
82,82,0,2683,28589
83,83,0,2759,40898
84,84,0,2836,40898
85,85,0,2913,40898
86,86,0,2989,40898
87,87,0,3066,40898
88,88,0,3143,3951
89,89,0,3219,3951
90,90,0,3296,3951
91,91,0,3372,3951
92,92,0,3449,3951
93,93,0,3525,44849
94,94,0,3603,44849
95,95,0,3679,44849
96,96,0,3755,44849
97,97,0,3832,44849
98,98,0,3908,48800
99,99,0,3986,48800
100,100,0,4063,48800
101,101,0,4139,48800
102,102,0,4216,48800
103,103,0,4292,28113
104,104,0,4370,28113
105,105,0,4446,28113
106,106,0,4522,28113
107,107,0,4599,28113
108,108,0,4676,11377
109,109,0,4753,11377
110,110,0,4830,11377
111,111,0,4906,11377
112,112,0,4983,11377
113,113,0,5059,39490
114,114,0,5136,39490
115,115,0,5215,39490
116,116,0,5289,39490
117,117,0,5366,39490
118,118,0,5443,50867
119,119,0,5520,50867
120,120,0,5597,50867
121,121,0,5673,50867
122,122,0,5750,50867
123,123,0,5826,24821
124,124,0,5903,24821
125,125,0,5980,24821
126,126,0,6056,24821
127,127,0,6133,24821
128,128,0,6209,10152
129,129,0,6286,10152
130,130,0,6363,10152
131,131,0,6439,10152
132,132,0,6516,10152
133,133,0,6593,34973
134,134,0,6670,34973
135,135,0,6746,34973
136,136,0,6823,34973
137,137,0,6899,34973
138,138,0,6976,45125
139,139,0,7053,45125
140,140,0,7130,45125
141,141,0,7206,45125
142,142,0,7283,45125
143,143,0,7348,14562
144,144,0,7437,14562
145,145,0,7514,14562
146,146,0,7590,14562
147,147,0,7666,14562
148,148,0,0,59687
149,149,0,76,59687
150,150,0,153,59687
151,151,0,229,59687
152,152,0,306,59687
153,153,0,382,8713
154,154,0,459,8713
155,155,0,536,8713
156,156,0,612,8713
157,157,0,689,8713
158,158,0,766,2864
159,159,0,843,2864
160,160,0,920,2864
161,161,0,996,2864
162,162,0,1073,2864
163,163,0,1150,11577
164,164,0,1227,11577
165,165,0,1303,11577
166,166,0,1380,11577
167,167,0,1457,11577
168,168,0,1533,14441
169,169,0,1611,14441
170,170,0,1687,14441
171,171,0,1763,14441
172,172,0,1840,14441
173,173,0,1917,26018
174,174,0,1994,26018
175,175,0,2071,26018
176,176,0,2147,26018
177,177,0,2224,26018
178,178,0,2301,40459
179,179,0,2378,40459
180,180,0,2455,40459
181,181,0,2530,40459
182,182,0,2607,40459
183,183,0,2684,941
184,184,0,2761,941
185,185,0,2838,941
186,186,0,2914,941
187,187,0,2991,941
188,188,0,3065,41400
189,189,0,3145,41400
190,190,0,3222,41400
191,191,0,3298,41400
192,192,0,3375,41400
193,193,0,3451,42341
194,194,0,3528,42341
195,195,0,3605,42341
196,196,0,3681,42341
197,197,0,3758,42341
198,198,0,3835,18205
199,199,0,3912,18205
200,200,0,3989,18205
201,201,0,4065,18205
202,202,0,4142,18205
203,203,0,4218,60546
204,204,0,4303,60546
205,205,0,4373,60546
206,206,0,4448,60546
207,207,0,4525,60546
208,208,0,4602,13215
209,209,0,4679,13215
210,210,0,4756,13215
211,211,0,4832,13215
212,212,0,4908,13215
213,213,0,4985,8225
214,214,0,5062,8225
215,215,0,5139,8225
216,216,0,5215,8225
217,217,0,5292,8225
218,218,0,5369,21440
219,219,0,5446,21440
220,220,0,5523,21440
221,221,0,5599,21440
222,222,0,5676,21440
223,223,0,5753,29665
224,224,0,5830,29665
225,225,0,5907,29665
226,226,0,5983,29665
227,227,0,6060,29665
228,228,0,6137,51105
229,229,0,6214,51105
230,230,0,6291,51105
231,231,0,6367,51105
232,232,0,6444,51105
233,233,0,6521,15234
234,234,0,6598,15234
235,235,0,6675,15234
236,236,0,6751,15234
237,237,0,6828,15234
238,238,0,6905,803
239,239,0,6982,803
240,240,0,7059,803
241,241,0,7135,803
242,242,0,7212,803
243,243,0,7289,16037
244,244,0,7366,16037
245,245,0,7442,16037
246,246,0,7519,16037
247,247,0,7596,16037
248,248,0,7672,16840
249,249,0,0,16840
250,250,0,75,16840
251,251,0,152,16840
252,252,0,228,16840
253,253,0,305,32877
254,254,0,382,32877
255,255,0,459,32877
256,256,0,535,32877
257,257,0,612,32877
258,258,0,689,49717
259,259,0,766,49717
260,260,0,843,49717
261,261,0,919,49717
262,262,0,996,49717
263,263,0,1072,17058
264,264,0,1149,17058
265,265,0,1227,17058
266,266,0,1303,17058
267,267,0,1379,17058
268,268,0,1456,1239
269,269,0,1533,1239
270,270,0,1610,1239
271,271,0,1686,1239
272,272,0,1763,1239
273,273,0,1839,18297
274,274,0,1916,18297
275,275,0,1993,18297
276,276,0,2069,18297
277,277,0,2146,18297
278,278,0,2223,19536
279,279,0,2300,19536
280,280,0,2377,19536
281,281,0,2453,19536
282,282,0,2530,19536
283,283,0,2607,37833
284,284,0,2684,37833
285,285,0,2761,37833
286,286,0,2837,37833
287,287,0,2914,37833
288,288,0,2991,57369
289,289,0,3068,57369
290,290,0,3145,57369
291,291,0,3221,57369
292,292,0,3298,57369
293,293,0,3375,29666
294,294,0,3452,29666
295,295,0,3529,29666
296,296,0,3605,29666
297,297,0,3682,29666
298,298,0,3759,21499
299,299,0,3835,21499
300,300,0,3912,21499
301,301,0,3989,21499
302,302,0,4066,21499
303,303,0,4142,51165
304,304,0,4219,51165
305,305,0,4296,51165
306,306,0,4372,51165
307,307,0,4449,51165
308,308,0,4526,7128
309,309,0,4603,7128
310,310,0,4680,7128
311,311,0,4756,7128
312,312,0,4833,7128
313,313,0,4910,58293
314,314,0,4987,58293
315,315,0,5071,58293
316,316,0,5140,58293
317,317,0,5217,58293
318,318,0,5294,65421
319,319,0,5371,65421
320,320,0,5447,65421
321,321,0,5524,65421
322,322,0,5600,65421
323,323,0,5677,58178
324,324,0,5754,58178
325,325,0,5831,58178
326,326,0,5907,58178
327,327,0,5984,58178
328,328,0,6061,58063
329,329,0,6137,58063
330,330,0,6214,58063
331,331,0,6290,58063
332,332,0,6367,58063
333,333,0,6444,50705
334,334,0,6521,50705
335,335,0,6598,50705
336,336,0,6674,50705
337,337,0,6751,50705
338,338,0,6827,43232
339,339,0,6904,43232
340,340,0,6981,43232
341,341,0,7057,43232
342,342,0,7134,43232
343,343,0,7211,28401
344,344,0,7288,28401
345,345,0,7365,28401
346,346,0,7441,28401
347,347,0,7518,28401
348,348,0,7595,6097
349,349,0,7672,6097
350,350,0,0,6097
351,351,0,75,6097
352,352,0,152,6097
353,353,0,229,34498
354,354,0,306,34498
355,355,0,383,34498
356,356,0,459,34498
357,357,0,536,34498
358,358,0,613,40595
359,359,0,689,40595
360,360,0,766,40595
361,361,0,842,40595
362,362,0,919,40595
363,363,0,996,9557
364,364,0,1073,9557
365,365,0,1150,9557
366,366,0,1226,9557
367,367,0,1303,9557
368,368,0,1379,50152
369,369,0,1457,50152
370,370,0,1534,50152
371,371,0,1610,50152
372,372,0,1687,50152
373,373,0,1763,59709
374,374,0,1840,59709
375,375,0,1917,59709
376,376,0,1993,59709
377,377,0,2070,59709
378,378,0,2147,44325
379,379,0,2224,44325
380,380,0,2301,44325
381,381,0,2377,44325
382,382,0,2454,44325
383,383,0,2530,38498
384,384,0,2607,38498
385,385,0,2685,38498
386,386,0,2761,38498
387,387,0,2837,38498
388,388,0,2914,17287
389,389,0,2991,17287
390,390,0,3068,17287
391,391,0,3144,17287
392,392,0,3221,17287
393,393,0,3297,55785
394,394,0,3374,55785
395,395,0,3451,55785
396,396,0,3527,55785
397,397,0,3604,55785
398,398,0,3681,7536
399,399,0,3758,7536
400,400,0,3835,7536
401,401,0,3911,7536
402,402,0,3988,7536
403,403,0,4064,63321
404,404,0,4141,63321
405,405,0,4218,63321
406,406,0,4294,63321
407,407,0,4371,63321
408,408,0,4448,5321
409,409,0,4525,5321
410,410,0,4602,5321
411,411,0,4678,5321
412,412,0,4755,5321
413,413,0,4832,3106
414,414,0,4909,3106
415,415,0,4986,3106
416,416,0,5061,3106
417,417,0,5138,3106
418,418,0,5215,8427
419,419,0,5292,8427
420,420,0,5369,8427
421,421,0,5445,8427
422,422,0,5521,8427
423,423,0,5598,11533
424,424,0,5675,11533
425,425,0,5752,11533
426,426,0,5828,11533
427,427,0,5905,11533
428,428,0,5981,19960
429,429,0,6058,19960
430,430,0,6135,19960
431,431,0,6212,19960
432,432,0,6288,19960
433,433,0,6365,31493
434,434,0,6442,31493
435,435,0,6519,31493
436,436,0,6595,31493
437,437,0,6671,31493
438,438,0,6748,51453
439,439,0,6825,51453
440,440,0,6902,51453
441,441,0,6978,51453
442,442,0,7055,51453
443,443,0,7131,17410
444,444,0,7208,17410
445,445,0,7285,17410
446,446,0,7361,17410
447,447,0,7438,17410
448,448,0,7514,3327
449,449,0,7591,3327
450,450,0,7668,3327
451,451,0,0,3327
452,452,0,75,3327
453,453,0,152,20737
454,454,0,229,20737
455,455,0,306,20737
456,456,0,382,20737
457,457,0,458,20737
458,458,0,535,24064
459,459,0,612,24064
460,460,0,689,24064
461,461,0,765,24064
462,462,0,842,24064
463,463,0,919,44801
464,464,0,996,44801
465,465,0,1073,44801
466,466,0,1149,44801
467,467,0,1226,44801
468,468,0,1302,3329
469,469,0,1380,3329
470,470,0,1456,3329
471,471,0,1532,3329
472,472,0,1609,3329
473,473,0,1686,48130
474,474,0,1763,48130
475,475,0,1840,48130
476,476,0,1916,48130
477,477,0,1993,48130
478,478,0,2070,51459
479,479,0,2146,51459
480,480,0,2223,51459
481,481,0,2299,51459
482,482,0,2376,51459
483,483,0,2453,34053
484,484,0,2530,34053
485,485,0,2607,34053
486,486,0,2683,34053
487,487,0,2760,34053
488,488,0,2836,19976
489,489,0,2913,19976
490,490,0,2990,19976
491,491,0,3066,19976
492,492,0,3143,19976
493,493,0,3220,54029
494,494,0,3297,54029
495,495,0,3375,54029
496,496,0,3450,54029
497,497,0,3527,54029
498,498,0,3604,8469
499,499,0,3681,8469
500,500,0,3757,8469
501,501,0,3833,8469
502,502,0,3910,8469
503,503,0,3986,62498
504,504,0,4064,62498
505,505,0,4141,62498
506,506,0,4216,62498
507,507,0,4293,62498
508,508,0,4370,5431
509,509,0,4447,5431
510,510,0,4523,5431
511,511,0,4599,5431
512,512,1,4676,5431
513,513,0,4753,2393
514,514,0,4830,2393
515,515,0,4906,2393
516,516,0,4982,2393
517,517,0,5059,2393
518,518,0,5136,7824
519,519,0,5213,7824
520,520,0,5290,7824
521,521,0,5366,7824
522,522,0,5442,7824
523,523,0,5519,10217
524,524,0,5596,10217
525,525,0,5673,10217
526,526,0,5749,10217
527,527,0,5826,10217
528,528,0,5903,18041
529,529,0,5980,18041
530,530,0,6056,18041
531,531,0,6132,18041
532,532,0,6209,18041
533,533,0,6286,28258
534,534,0,6363,28258
535,535,0,6440,28258
536,536,0,6515,28258
537,537,0,6592,28258
538,538,0,6669,46299
539,539,0,6746,46299
540,540,0,6822,46299
541,541,0,6898,46299
542,542,0,6975,46299
543,543,0,7052,9021
544,544,0,7129,9021
545,545,0,7205,9021
546,546,0,7282,9021
547,547,0,7358,9021
548,548,0,7435,55320
549,549,0,7512,55320
550,550,0,7589,55320
551,551,0,7665,55320
552,552,0,0,55320
553,553,0,75,64341
554,554,0,152,64341
555,555,0,229,64341
556,556,0,305,64341
557,557,0,382,64341
558,558,0,459,54125
559,559,0,536,54125
560,560,0,612,54125
561,561,0,689,54125
562,562,0,765,54125
563,563,0,842,52930
564,564,0,919,52930
565,565,0,996,52930
566,566,0,1071,52930
567,567,0,1148,52930
568,568,0,1225,41519
569,569,0,1303,41519
570,570,0,1378,41519
571,571,0,1454,41519
572,572,0,1531,41519
573,573,0,1608,28913
574,574,0,1684,28913
575,575,0,1761,28913
576,576,0,1837,28913
577,577,0,1914,28913
578,578,0,1990,4896
579,579,0,2067,4896
580,580,0,2144,4896
581,581,0,2220,4896
582,582,0,2297,4896
583,583,0,2374,33809
584,584,0,2451,33809
585,585,0,2528,33809
586,586,0,2601,33809
587,587,0,2681,33809
588,588,0,2757,38705
589,589,0,2835,38705
590,590,0,2911,38705
591,591,0,2987,38705
592,592,0,3064,38705
593,593,0,3141,6978
594,594,0,3218,6978
595,595,0,3295,6978
596,596,0,3371,6978
597,597,0,3447,6978
598,598,0,3524,45683
599,599,0,3601,45683
600,600,0,3678,45683
601,601,0,3754,45683
602,602,0,3831,45683
603,603,0,3907,52661
604,604,0,3984,52661
605,605,0,4061,52661
606,606,0,4137,52661
607,607,0,4214,52661
608,608,0,4290,32808
609,609,0,4367,32808
610,610,0,4444,32808
611,611,0,4520,32808
612,612,0,4597,32808
613,613,0,4674,19933
614,614,0,4750,19933
615,615,0,4827,19933
616,616,0,4903,19933
617,617,0,4980,19933
618,618,0,5057,52741
619,619,0,5134,52741
620,620,0,5210,52741
621,621,0,5287,52741
622,622,0,5363,52741
623,623,0,5376,7138
624,624,0,5517,7138
625,625,0,5594,7138
626,626,0,5670,7138
627,627,0,5746,7138
628,628,0,5823,59879
629,629,0,5900,59879
630,630,0,5976,59879
631,631,0,6053,59879
632,632,0,6129,59879
633,633,0,6206,1481
634,634,0,6283,1481
635,635,0,6360,1481
636,636,0,6436,1481
637,637,0,6513,1481
638,638,0,6589,61360
639,639,0,6666,61360
640,640,0,6743,61360
641,641,0,6819,61360
642,642,0,6896,61360
643,643,0,6973,62841
644,644,0,7050,62841
645,645,0,7126,62841
646,646,0,7202,62841
647,647,0,7279,62841
648,648,0,7356,58665
649,649,0,7433,58665
650,650,0,7510,58665
651,651,0,7586,58665
652,652,0,7663,58665
653,653,0,0,55970
654,654,0,76,55970
655,655,0,153,55970
656,656,0,229,55970
657,657,0,306,55970
658,658,0,383,49099
659,659,0,459,49099
660,660,0,536,49099
661,661,0,612,49099
662,662,0,689,49099
663,663,0,765,39533
664,664,0,842,39533
665,665,0,919,39533
666,666,0,995,39533
667,667,0,1072,39533
668,668,0,1148,23096
669,669,0,1225,23096
670,670,0,1302,23096
671,671,0,1378,23096
672,672,0,1455,23096
673,673,0,1532,62629
674,674,0,1609,62629
675,675,0,1686,62629
676,676,0,1762,62629
677,677,0,1838,62629
678,678,0,1915,20189
679,679,0,1992,20189
680,680,0,2069,20189
681,681,0,2145,20189
682,682,0,2222,20189
683,683,0,2298,17282
684,684,0,2375,17282
685,685,0,2452,17282
686,686,0,2528,17282
687,687,0,2605,17282
688,688,0,2681,37471
689,689,0,2758,37471
690,690,0,2835,37471
691,691,0,2911,37471
692,692,0,2988,37471
693,693,0,3064,54753
694,694,0,3141,54753
695,695,0,3218,54753
696,696,0,3294,54753
697,697,0,3371,54753
698,698,0,3447,26688
699,699,0,3525,26688
700,700,0,3602,26688
701,701,0,3677,26688
702,702,0,3754,26688
703,703,0,3831,15905
704,704,0,3908,15905
705,705,0,3985,15905
706,706,0,4061,15905
707,707,0,4138,15905
708,708,0,4215,42593
709,709,0,4292,42593
710,710,0,4369,42593
711,711,0,4445,42593
712,712,0,4522,42593
713,713,0,4599,58498
714,714,0,4676,58498
715,715,0,4753,58498
716,716,0,4829,58498
717,717,0,4905,58498
718,718,0,4982,35555
719,719,0,5059,35555
720,720,0,5136,35555
721,721,0,5212,35555
722,722,0,5289,35555
723,723,0,5366,28517
724,724,0,5443,28517
725,725,0,5519,28517
726,726,0,5596,28517
727,727,0,5673,28517
728,728,0,5749,64072
729,729,0,5826,64072
730,730,0,5903,64072
731,731,0,5979,64072
732,732,0,6056,64072
733,733,0,6133,27053
734,734,0,6210,27053
735,735,0,6286,27053
736,736,0,6363,27053
737,737,0,6440,27053
738,738,0,6516,25589
739,739,0,6593,25589
740,740,0,6670,25589
741,741,0,6746,25589
742,742,0,6823,25589
743,743,0,6900,52642
744,744,0,6977,52642
745,745,0,7054,52642
746,746,0,7130,52642
747,747,0,7206,52642
748,748,0,7283,12695
749,749,0,7360,12695
750,750,0,7437,12695
751,751,0,7513,12695
752,752,0,7590,12695
753,753,0,7666,65337
754,754,0,0,65337
755,755,0,75,65337
756,756,0,152,65337
757,757,0,228,65337
758,758,0,305,12496
759,759,0,382,12496
760,760,0,459,12496
761,761,0,535,12496
762,762,0,612,12496
763,763,0,689,12297
764,764,0,766,12297
765,765,0,843,12297
766,766,0,919,12297
767,767,0,996,12297
768,768,0,1073,24793
769,769,0,1150,24793
770,770,0,1226,24793
771,771,0,1303,24793
772,772,0,1379,24793
773,773,0,1456,37090
774,774,0,1533,37090
775,775,0,1610,37090
776,776,0,1686,37090
777,777,0,1763,37090
778,778,0,1840,61883
779,779,0,1916,61883
780,780,0,1993,61883
781,781,0,2069,61883
782,782,0,2146,61883
783,783,0,2223,33437
784,784,0,2300,33437
785,785,0,2377,33437
786,786,0,2453,33437
787,787,0,2530,33437
788,788,0,2606,29784
789,789,0,2684,29784
790,790,0,2761,29784
791,791,0,2837,29784
792,792,0,2913,29784
793,793,0,2990,63221
794,794,0,3067,63221
795,795,0,3144,63221
796,796,0,3220,63221
797,797,0,3297,63221
798,798,0,3374,27469
799,799,0,3451,27469
800,800,0,3528,27469
801,801,0,3604,27469
802,802,0,3681,27469
803,803,0,3757,25154
804,804,0,3834,25154
805,805,0,3912,25154
806,806,0,3987,25154
807,807,0,4064,25154
808,808,0,4141,52623
809,809,0,4218,52623
810,810,0,4295,52623
811,811,0,4371,52623
812,812,0,4448,52623
813,813,0,4524,12241
814,814,0,4602,12241
815,815,0,4679,12241
816,816,0,4754,12241
817,817,0,4831,12241
818,818,0,4908,64864
819,819,0,4985,64864
820,820,0,5062,64864
821,821,0,5138,64864
822,822,0,5215,64864
823,823,0,5292,11569
824,824,0,5369,11569
825,825,0,5446,11569
826,826,0,5522,11569
827,827,0,5599,11569
828,828,0,5676,10897
829,829,0,5753,10897
830,830,0,5830,10897
831,831,0,5906,10897
832,832,0,5983,10897
833,833,0,6060,22466
834,834,0,6137,22466
835,835,0,6214,22466
836,836,0,6290,22466
837,837,0,6367,22466
838,838,0,6444,33363
839,839,0,6521,33363
840,840,0,6598,33363
841,841,0,6674,33363
842,842,0,6751,33363
843,843,0,6828,55829
844,844,0,6905,55829
845,845,0,6982,55829
846,846,0,7058,55829
847,847,0,7135,55829
848,848,0,7211,23656
849,849,0,7289,23656
850,850,0,7366,23656
851,851,0,7442,23656
852,852,0,7519,23656
853,853,0,7596,13949
854,854,0,7673,13949
855,855,0,0,13949
856,856,0,76,13949
857,857,0,153,13949
858,858,0,230,37605
859,859,0,307,37605
860,860,0,511,37605
861,861,0,460,37605
862,862,0,536,37605
863,863,0,613,51554
864,864,0,690,51554
865,865,0,767,51554
866,866,0,843,51554
867,867,0,920,51554
868,868,0,997,23623
869,869,0,1074,23623
870,870,0,1151,23623
871,871,0,1227,23623
872,872,0,1304,23623
873,873,0,1381,9641
874,874,0,1458,9641
875,875,0,1535,9641
876,876,0,1611,9641
877,877,0,1688,9641
878,878,0,1764,33264
879,879,0,1842,33264
880,880,0,1919,33264
881,881,0,1995,33264
882,882,0,2072,33264
883,883,0,2149,42905
884,884,0,2226,42905
885,885,0,2303,42905
886,886,0,2379,42905
887,887,0,2456,42905
888,888,0,2533,10633
889,889,0,2610,10633
890,890,0,2687,10633
891,891,0,2763,10633
892,892,0,2840,10633
893,893,0,2916,53538
894,894,0,2993,53538
895,895,0,3070,53538
896,896,0,3146,53538
897,897,0,3223,53538
898,898,0,3300,64171
899,899,0,3377,64171
900,900,0,3454,64171
901,901,0,3530,64171
902,902,0,3607,64171
903,903,0,3683,52173
904,904,0,3761,52173
905,905,0,3837,52173
906,906,0,3914,52173
907,907,0,3991,52173
908,908,0,4067,50808
909,909,0,4144,50808
910,910,0,4221,50808
911,911,0,4297,50808
912,912,0,4374,50808
913,913,0,4451,37445
914,914,0,4528,37445
915,915,0,4605,37445
916,916,0,4681,37445
917,917,0,4758,37445
918,918,0,4835,22717
919,919,0,4912,22717
920,920,0,4989,22717
921,921,0,5065,22717
922,922,0,5142,22717
923,923,0,5219,60162
924,924,0,5296,60162
925,925,0,5373,60162
926,926,0,5449,60162
927,927,0,5525,60162
928,928,0,5602,17343
929,929,0,5679,17343
930,930,0,5756,17343
931,931,0,5832,17343
932,932,0,5909,17343
933,933,0,5985,11969
934,934,0,6062,11969
935,935,0,6139,11969
936,936,0,6215,11969
937,937,0,6292,11969
938,938,0,6369,29312
939,939,0,6446,29312
940,940,0,6523,29312
941,941,0,6599,29312
942,942,0,6676,29312
943,943,0,6753,41281
944,944,0,6830,41281
945,945,0,6907,41281
946,946,0,6983,41281
947,947,0,7060,41281
948,948,0,7137,5057
949,949,0,7215,5057
950,950,0,7292,5057
951,951,0,7368,5057
952,952,0,7445,5057
953,953,0,7521,46338
954,954,0,7599,46338
955,955,0,7676,46338
956,956,0,0,46338
957,957,0,73,46338
958,958,0,153,51395
959,959,0,229,51395
960,960,0,307,51395
961,961,0,383,51395
962,962,0,460,51395
963,963,0,536,32197
964,964,0,613,32197
965,965,0,690,32197
966,966,0,766,32197
967,967,0,843,32197
968,968,0,920,18056
969,969,0,997,18056
970,970,0,1074,18056
971,971,0,1150,18056
