Sample in Buffer,Sample in Window,TRIGGER,freq_1[15:0],debug_1[15:0]
Radix - UNSIGNED,UNSIGNED,UNSIGNED,UNSIGNED,UNSIGNED
0,0,0,135,60312
1,1,0,162,60312
2,2,0,188,60312
3,3,0,211,60312
4,4,0,242,60949
5,5,0,270,60949
6,6,0,297,60949
7,7,0,327,60949
8,8,0,351,60949
9,9,0,377,55725
10,10,0,405,55725
11,11,0,432,55725
12,12,0,459,55725
13,13,0,486,55725
14,14,0,512,51138
15,15,0,540,51138
16,16,0,567,51138
17,17,0,593,51138
18,18,0,621,51138
19,19,0,651,41327
20,20,0,675,41327
21,21,0,702,41327
22,22,0,729,41327
23,23,0,756,41327
24,24,0,783,26929
25,25,0,810,26929
26,26,0,837,26929
27,27,0,863,26929
28,28,0,891,26929
29,29,0,917,2720
30,30,0,945,2720
31,31,0,972,2720
32,32,0,998,2720
33,33,0,1026,2720
34,34,0,1053,29649
35,35,0,1080,29649
36,36,0,1107,29649
37,37,0,1134,29649
38,38,0,1161,29649
39,39,0,1188,32369
40,40,0,1215,32369
41,41,0,1242,32369
42,42,0,1269,32369
43,43,0,1296,32369
44,44,0,1323,62018
45,45,0,1350,62018
46,46,0,1377,62018
47,47,0,1404,62018
48,48,0,1431,62018
49,49,0,1458,28851
50,50,0,1485,28851
51,51,0,1512,28851
52,52,0,1539,28851
53,53,0,1566,28851
54,54,0,1593,25333
55,55,0,1620,25333
56,56,0,1647,25333
57,57,0,1674,25333
58,58,0,1701,25333
59,59,0,1728,54184
60,60,0,1755,54184
61,61,0,1782,54184
62,62,0,1809,54184
63,63,0,1836,54184
64,64,0,1863,13981
65,65,0,1890,13981
66,66,0,1917,13981
67,67,0,1944,13981
68,68,0,1971,13981
69,69,0,1998,2629
70,70,0,2025,2629
71,71,0,2052,2629
72,72,0,2079,2629
73,73,0,2106,2629
74,74,0,2133,16610
75,75,0,2160,16610
76,76,0,2190,16610
77,77,0,2214,16610
78,78,0,2241,16610
79,79,0,2268,19239
80,80,0,2298,19239
81,81,0,2323,19239
82,82,0,2349,19239
83,83,0,2376,19239
84,84,0,2403,35849
85,85,0,2431,35849
86,86,0,2458,35849
87,87,0,2484,35849
88,88,0,2511,35849
89,89,0,2538,55088
90,90,0,2566,55088
91,91,0,2593,55088
92,92,0,2619,55088
93,93,0,2646,55088
94,94,0,2673,25401
95,95,0,2701,25401
96,96,0,0,25401
97,97,0,27,25401
98,98,0,54,25401
99,99,0,80,14953
100,100,0,108,14953
101,101,0,135,14953
102,102,0,162,14953
103,103,0,189,14953
104,104,0,211,40354
105,105,0,243,40354
106,106,0,270,40354
107,107,0,297,40354
108,108,0,324,40354
109,109,0,351,55307
110,110,0,378,55307
111,111,0,405,55307
112,112,0,432,55307
113,113,0,459,55307
114,114,0,486,30125
115,115,0,513,30125
116,116,0,540,30125
117,117,0,567,30125
118,118,0,594,30125
119,119,0,620,19896
120,120,0,648,19896
121,121,0,675,19896
122,122,0,702,19896
123,123,0,729,19896
124,124,0,756,50021
125,125,0,783,50021
126,126,0,810,50021
127,127,0,837,50021
128,128,0,864,50021
129,129,0,891,4381
130,130,0,918,4381
131,131,0,945,4381
132,132,0,972,4381
133,133,0,999,4381
134,134,0,1025,54402
135,135,0,1053,54402
136,136,0,1080,54402
137,137,0,1107,54402
138,138,0,1134,54402
139,139,0,1161,58783
140,140,0,1188,58783
141,141,0,1215,58783
142,142,0,1242,58783
143,143,0,1269,58783
144,144,0,1296,47649
145,145,0,1323,47649
146,146,0,1350,47649
147,147,0,1376,47649
148,148,0,1404,47649
149,149,0,1430,40896
150,150,0,1458,40896
151,151,0,1485,40896
152,152,0,1511,40896
153,153,0,1539,40896
154,154,0,1566,23009
155,155,0,1593,23009
156,156,0,1620,23009
157,157,0,1647,23009
158,158,0,1674,23009
159,159,0,1701,63905
160,160,0,1728,63905
161,161,0,1755,63905
162,162,0,1782,63905
163,163,0,1809,63905
164,164,0,1836,21378
165,165,0,1863,21378
166,166,0,1890,21378
167,167,0,1917,21378
168,168,0,1944,21378
169,169,0,1971,19747
170,170,0,1998,19747
171,171,0,2025,19747
172,172,0,2052,19747
173,173,0,2079,19747
174,174,0,2106,41125
175,175,0,2133,41125
176,176,0,2160,41125
177,177,0,2187,41125
178,178,0,2214,41125
179,179,0,2241,60872
180,180,0,2268,60872
181,181,0,2295,60872
182,182,0,2322,60872
183,183,0,2349,60872
184,184,0,2376,36461
185,185,0,2403,36461
186,186,0,2430,36461
187,187,0,2457,36461
188,188,0,2484,36461
189,189,0,2511,31797
190,190,0,2538,31797
191,191,0,2565,31797
192,192,0,2592,31797
193,193,0,2619,31797
194,194,0,2646,2722
195,195,0,2673,2722
196,196,0,2700,2722
197,197,0,0,2722
198,198,0,27,2722
199,199,0,54,34519
200,200,0,81,34519
201,201,0,108,34519
202,202,0,135,34519
203,203,0,162,34519
204,204,0,189,37241
205,205,0,216,37241
206,206,0,243,37241
207,207,0,270,37241
208,208,0,297,37241
209,209,0,324,6224
210,210,0,351,6224
211,211,0,378,6224
212,212,0,405,6224
213,213,0,432,6224
214,214,0,459,43465
215,215,0,486,43465
216,216,0,513,43465
217,217,0,540,43465
218,218,0,567,43465
219,219,0,594,49689
220,220,0,621,49689
221,221,0,648,49689
222,222,0,675,49689
223,223,0,702,49689
224,224,0,729,27618
225,225,0,756,27618
226,226,0,783,27618
227,227,0,810,27618
228,228,0,837,27618
229,229,0,864,11771
230,230,0,891,11771
231,231,0,918,11771
232,232,0,945,11771
233,233,0,972,11771
234,234,0,999,39389
235,235,0,1026,39389
236,236,0,1053,39389
237,237,0,1080,39389
238,238,0,1107,39389
239,239,0,1134,51160
240,240,0,1161,51160
241,241,0,1188,51160
242,242,0,1215,51160
243,243,0,1242,51160
244,244,0,1269,25013
245,245,0,1296,25013
246,246,0,1323,25013
247,247,0,1350,25013
248,248,0,1377,25013
249,249,0,1404,10637
250,250,0,1431,10637
251,251,0,1458,10637
252,252,0,1485,10637
253,253,0,1512,10637
254,254,0,1539,35650
255,255,0,1566,35650
256,256,0,1593,35650
257,257,0,1620,35650
258,258,0,1647,35650
259,259,0,1674,46287
260,260,0,1701,46287
261,261,0,1728,46287
262,262,0,1755,46287
263,263,0,1782,46287
264,264,0,1809,16401
265,265,0,1836,16401
266,266,0,1863,16401
267,267,0,1890,16401
268,268,0,1917,16401
269,269,0,1944,62688
270,270,0,1971,62688
271,271,0,1998,62688
272,272,0,2025,62688
273,273,0,2052,62688
274,274,0,2079,13553
275,275,0,2106,13553
276,276,0,2133,13553
277,277,0,2160,13553
278,278,0,2187,13553
279,279,0,2214,10705
280,280,0,2242,10705
281,281,0,2269,10705
282,282,0,2295,10705
283,283,0,2323,10705
284,284,0,2349,24258
285,285,0,2377,24258
286,286,0,2404,24258
287,287,0,2430,24258
288,288,0,2457,24258
289,289,0,2484,34963
290,290,0,2512,34963
291,291,0,2539,34963
292,292,0,2565,34963
293,293,0,2592,34963
294,294,0,2623,59221
295,295,0,2647,59221
296,296,0,2674,59221
297,297,0,2700,59221
298,298,0,0,59221
299,299,0,26,28648
300,300,0,54,28648
301,301,0,81,28648
302,302,0,107,28648
303,303,0,134,28648
304,304,0,161,22333
305,305,0,189,22333
306,306,0,216,22333
307,307,0,243,22333
308,308,0,270,22333
309,309,0,296,50981
310,310,0,324,50981
311,311,0,351,50981
312,312,0,377,50981
313,313,0,405,50981
314,314,0,447,7778
315,315,0,459,7778
316,316,0,486,7778
317,317,0,513,7778
318,318,0,540,7778
319,319,0,567,58759
320,320,0,594,58759
321,321,0,621,58759
322,322,0,648,58759
323,323,0,675,58759
324,324,0,702,1001
325,325,0,729,1001
326,326,0,756,1001
327,327,0,783,1001
328,328,0,810,1001
329,329,0,836,59760
330,330,0,864,59760
331,331,0,891,59760
332,332,0,918,59760
333,333,0,945,59760
334,334,0,972,60761
335,335,0,999,60761
336,336,0,1026,60761
337,337,0,1053,60761
338,338,0,1080,60761
339,339,0,1107,54985
340,340,0,1134,54985
341,341,0,1161,54985
342,342,0,1188,54985
343,343,0,1215,54985
344,344,0,1242,50210
345,345,0,1269,50210
346,346,0,1296,50210
347,347,0,1323,50210
348,348,0,1350,50210
349,349,0,1377,39659
350,350,0,1404,39659
351,351,0,1431,39659
352,352,0,1458,39659
353,353,0,1485,39659
354,354,0,1512,24333
355,355,0,1539,24333
356,356,0,1566,24333
357,357,0,1593,24333
358,358,0,1620,24333
359,359,0,1647,63992
360,360,0,1674,63992
361,361,0,1701,63992
362,362,0,1728,63992
363,363,0,1755,63992
364,364,0,1782,22789
365,365,0,1809,22789
366,366,0,1836,22789
367,367,0,1863,22789
368,368,0,1890,22789
369,369,0,1917,21245
370,370,0,1944,21245
371,371,0,1971,21245
372,372,0,1998,21245
373,373,0,2025,21245
374,374,0,2052,44034
375,375,0,2079,44034
376,376,0,2106,44034
377,377,0,2133,44034
378,378,0,2160,44034
379,379,0,2187,65279
380,380,0,2214,65279
381,381,0,2242,65279
382,382,0,2268,65279
383,383,0,2295,65279
384,384,0,2322,43777
385,385,0,2350,43777
386,386,0,2376,43777
387,387,0,2403,43777
388,388,0,2430,43777
389,389,0,2457,43520
390,390,0,2484,43520
391,391,0,2512,43520
392,392,0,2538,43520
393,393,0,2565,43520
394,394,0,2592,21761
395,395,0,2620,21761
396,396,0,2647,21761
397,397,0,2674,21761
398,398,0,2701,21761
399,399,0,0,65281
400,400,0,27,65281
401,401,0,54,65281
402,402,0,81,65281
403,403,0,108,65281
404,404,0,135,21506
405,405,0,162,21506
406,406,0,189,21506
407,407,0,216,21506
408,408,0,243,21506
409,409,0,270,21251
410,410,0,297,21251
411,411,0,324,21251
412,412,0,351,21251
413,413,0,378,21251
414,414,0,405,42757
415,415,0,432,42757
416,416,0,459,42757
417,417,0,486,42757
418,418,0,513,42757
419,419,0,540,64008
420,420,0,567,64008
421,421,0,595,64008
422,422,0,621,64008
423,423,0,648,64008
424,424,0,675,41229
425,425,0,703,41229
426,426,0,730,41229
427,427,0,756,41229
428,428,0,786,41229
429,429,0,811,39701
430,430,0,838,39701
431,431,0,865,39701
432,432,0,892,39701
433,433,0,919,39701
434,434,0,946,15394
435,435,0,973,15394
436,436,0,1000,15394
437,437,0,1027,15394
438,438,0,1054,15394
439,439,0,1081,55095
440,440,0,1108,55095
441,441,0,1135,55095
442,442,0,1162,55095
443,443,0,1189,55095
444,444,0,1216,4953
445,445,0,1243,4953
446,446,0,1270,4953
447,447,0,1297,4953
448,448,0,1324,4953
449,449,0,1351,60048
450,450,0,1378,60048
451,451,0,1405,60048
452,452,0,1432,60048
453,453,0,1459,60048
454,454,0,1486,65001
455,455,0,1513,65001
456,456,0,1540,65001
457,457,0,1567,65001
458,458,0,1594,65001
459,459,0,1621,59513
460,460,0,1648,59513
461,461,0,1675,59513
462,462,0,1702,59513
463,463,0,1729,59513
464,464,0,1756,58978
465,465,0,1783,58978
466,466,0,1811,58978
467,467,0,1837,58978
468,468,0,1864,58978
469,469,0,1891,52955
470,470,0,1918,52955
471,471,0,1945,52955
472,472,0,1972,52955
473,473,0,1999,52955
474,474,0,2026,46397
475,475,0,2054,46397
476,476,0,2081,46397
477,477,0,2107,46397
478,478,0,2134,46397
479,479,0,2161,33816
480,480,0,2189,33816
481,481,0,2211,33816
482,482,0,2242,33816
483,483,0,2269,33816
484,484,0,2296,14677
485,485,0,2324,14677
486,486,0,2351,14677
487,487,0,2377,14677
488,488,0,2405,14677
489,489,0,2447,48493
490,490,0,2459,48493
491,491,0,2486,48493
492,492,0,2513,48493
493,493,0,2540,48493
494,494,0,2567,63170
495,495,0,2594,63170
496,496,0,2621,63170
497,497,0,2651,63170
498,498,0,2675,63170
499,499,0,2701,46127
500,500,0,0,46127
501,501,0,27,46127
502,502,0,54,46127
503,503,0,81,46127
504,504,0,108,43761
505,505,0,135,43761
506,506,0,162,43761
507,507,0,189,43761
508,508,0,216,43761
509,509,0,242,24352
510,510,0,270,24352
511,511,0,297,24352
512,512,0,324,24352
513,513,0,351,24352
514,514,0,378,2577
515,515,0,405,2577
516,516,0,432,2577
517,517,0,459,2577
518,518,0,486,2577
519,519,0,513,26929
520,520,0,540,26929
521,521,0,567,26929
522,522,0,594,26929
523,523,0,621,26929
524,524,0,648,29506
525,525,0,675,29506
526,526,0,702,29506
527,527,0,729,29506
528,528,0,756,29506
529,529,0,783,56435
530,530,0,810,56435
531,531,0,838,56435
532,532,0,864,56435
533,533,0,891,56435
534,534,0,918,20405
535,535,0,946,20405
536,536,0,973,20405
537,537,0,999,20405
538,538,0,1026,20405
539,539,0,1053,11304
540,540,0,1081,11304
541,541,0,1108,11304
542,542,0,1134,11304
543,543,0,1161,11304
544,544,0,1188,31709
545,545,0,1216,31709
546,546,0,1243,31709
547,547,0,1270,31709
548,548,0,1297,31709
549,549,0,1323,43013
550,550,0,1351,43013
551,551,0,1378,43013
552,552,0,1405,43013
553,553,0,1432,43013
554,554,0,1459,9186
555,555,0,1486,9186
556,556,0,1513,9186
557,557,0,1540,9186
558,558,0,1567,9186
559,559,0,1594,52199
560,560,0,1621,52199
561,561,0,1648,52199
562,562,0,1675,52199
563,563,0,1702,52199
564,564,0,1729,61385
565,565,0,1756,61385
566,566,0,1783,61385
567,567,0,1810,61385
568,568,0,1837,61385
569,569,0,1864,48048
570,570,0,1891,48048
571,571,0,1918,48048
572,572,0,1945,48048
573,573,0,1972,48048
574,574,0,1999,43897
575,575,0,2026,43897
576,576,0,2053,43897
577,577,0,2080,43897
578,578,0,2107,43897
579,579,0,2134,26409
580,580,0,2161,26409
581,581,0,2188,26409
582,582,0,2215,26409
583,583,0,2242,26409
584,584,0,2269,4770
585,585,0,2296,4770
586,586,0,2323,4770
587,587,0,2350,4770
588,588,0,2377,4770
589,589,0,2404,31179
590,590,0,2431,31179
591,591,0,2458,31179
592,592,0,2485,31179
593,593,0,2512,31179
594,594,0,2539,35949
595,595,0,2566,35949
596,596,0,2593,35949
597,597,0,2620,35949
598,598,0,2647,35949
599,599,0,2674,1592
600,600,0,2701,1592
601,601,0,0,1592
602,602,0,26,1592
603,603,0,53,1592
604,604,0,80,37541
605,605,0,107,37541
606,606,0,134,37541
607,607,0,161,37541
608,608,0,188,37541
609,609,0,215,39133
610,610,0,242,39133
611,611,0,269,39133
612,612,0,296,39133
613,613,0,323,39133
614,614,0,350,11138
615,615,0,377,11138
616,616,0,404,11138
617,617,0,431,11138
618,618,0,458,11138
619,619,0,485,50271
620,620,0,512,50271
621,621,0,539,50271
622,622,0,566,50271
623,623,0,593,50271
624,624,0,620,61409
625,625,0,647,61409
626,626,0,674,61409
627,627,0,701,61409
628,628,0,728,61409
629,629,0,755,46144
630,630,0,782,46144
631,631,0,809,46144
632,632,0,836,46144
633,633,0,863,46144
634,634,0,890,42017
635,635,0,917,42017
636,636,0,944,42017
637,637,0,971,42017
638,638,0,998,42017
639,639,0,1025,22625
640,640,0,1052,22625
641,641,0,1080,22625
642,642,0,1106,22625
643,643,0,1133,22625
644,644,0,1160,64642
645,645,0,1191,64642
646,646,0,1215,64642
647,647,0,1241,64642
648,648,0,1268,64642
649,649,0,1295,21731
650,650,0,1323,21731
651,651,0,1350,21731
652,652,0,1376,21731
653,653,0,1403,21731
654,654,0,1430,20837
655,655,0,1458,20837
656,656,0,1484,20837
657,657,0,1511,20837
658,658,0,1538,20837
659,659,0,1565,42568
660,660,0,1592,42568
661,661,0,1623,42568
662,662,0,1646,42568
663,663,0,1673,42568
664,664,0,1700,63405
665,665,0,1743,63405
666,666,0,1755,63405
667,667,0,1781,63405
668,668,0,1808,63405
669,669,0,1835,40437
670,670,0,1863,40437
671,671,0,1889,40437
672,672,0,1916,40437
673,673,0,1943,40437
674,674,0,1970,38306
675,675,0,1997,38306
676,676,0,2024,38306
677,677,0,2051,38306
678,678,0,2078,38306
679,679,0,2105,13207
680,680,0,2132,13207
681,681,0,2159,13207
682,682,0,2186,13207
683,683,0,2213,13207
684,684,0,2240,51513
685,685,0,2267,51513
686,686,0,2294,51513
687,687,0,2321,51513
688,688,0,2348,51513
689,689,0,2375,64720
690,690,0,2402,64720
691,691,0,2429,64720
692,692,0,2456,64720
693,693,0,2483,64720
694,694,0,2510,50697
695,695,0,2537,50697
696,696,0,2564,50697
697,697,0,2591,50697
698,698,0,2618,50697
699,699,0,2645,49881
700,700,0,2672,49881
701,701,0,2699,49881
702,702,0,0,49881
703,703,0,27,49881
704,704,0,54,35042
705,705,0,81,35042
706,706,0,108,35042
707,707,0,135,35042
708,708,0,162,35042
709,709,0,189,19387
710,710,0,216,19387
711,711,0,243,19387
712,712,0,270,19387
713,713,0,297,19387
714,714,0,324,54429
715,715,0,351,54429
716,716,0,378,54429
717,717,0,405,54429
718,718,0,432,54429
719,719,0,459,8280
720,720,0,486,8280
721,721,0,513,8280
722,722,0,540,8280
723,723,0,567,8280
724,724,0,594,62709
725,725,0,621,62709
726,726,0,648,62709
727,727,0,675,62709
728,728,0,702,62709
729,729,0,729,5453
730,730,0,756,5453
731,731,0,783,5453
732,732,0,810,5453
733,733,0,837,5453
734,734,0,863,2626
735,735,0,891,2626
736,736,0,918,2626
737,737,0,944,2626
738,738,0,972,2626
739,739,0,998,8079
740,740,0,1026,8079
741,741,0,1053,8079
742,742,0,1082,8079
743,743,0,1106,8079
744,744,0,1133,10705
745,745,0,1161,10705
746,746,0,1191,10705
747,747,0,1214,10705
748,748,0,1241,10705
749,749,0,1268,18784
750,750,0,1307,18784
751,751,0,1323,18784
752,752,0,1349,18784
753,753,0,1376,18784
754,754,0,1403,29489
755,755,0,1430,29489
756,756,0,1457,29489
757,757,0,1484,29489
758,758,0,1511,29489
759,759,0,1538,48273
760,760,0,1566,48273
761,761,0,1593,48273
762,762,0,1619,48273
763,763,0,1646,48273
764,764,0,1673,12226
765,765,0,1700,12226
766,766,0,1728,12226
767,767,0,1754,12226
768,768,0,1781,12226
769,769,0,1808,60499
770,770,0,1835,60499
771,771,0,1862,60499
772,772,0,1889,60499
773,773,0,1916,60499
774,774,0,1943,7189
775,775,0,1970,7189
776,776,0,1997,7189
777,777,0,2024,7189
778,778,0,2051,7189
779,779,0,2078,2152
780,780,0,2105,2152
781,781,0,2132,2152
782,782,0,2159,2152
783,783,0,2186,2152
784,784,0,2213,9341
785,785,0,2240,9341
786,786,0,2267,9341
787,787,0,2294,9341
788,788,0,2321,9341
789,789,0,2348,11493
790,790,0,2375,11493
791,791,0,2402,11493
792,792,0,2429,11493
793,793,0,2456,11493
794,794,0,2483,20834
795,795,0,2510,20834
796,796,0,2537,20834
797,797,0,2564,20834
798,798,0,2591,20834
799,799,0,2618,32327
800,800,0,2645,32327
801,801,0,2672,32327
802,802,0,2699,32327
803,803,0,0,32327
804,804,0,26,53161
805,805,0,53,53161
806,806,0,80,53161
807,807,0,107,53161
808,808,0,134,53161
809,809,0,161,19952
810,810,0,188,19952
811,811,0,215,19952
812,812,0,242,19952
813,813,0,269,19952
814,814,0,296,7577
815,815,0,323,7577
816,816,0,350,7577
817,817,0,377,7577
818,818,0,404,7577
819,819,0,431,27529
820,820,0,458,27529
821,821,0,485,27529
822,822,0,512,27529
823,823,0,539,27529
824,824,0,566,35106
825,825,0,593,35106
826,826,0,620,35106
827,827,0,647,35106
828,828,0,674,35106
829,829,0,701,62635
830,830,0,728,62635
831,831,0,755,62635
832,832,0,782,62635
833,833,0,809,62635
834,834,0,836,32205
835,835,0,863,32205
836,836,0,890,32205
837,837,0,917,32205
838,838,0,944,32205
839,839,0,971,29304
840,840,0,998,29304
841,841,0,1025,29304
842,842,0,1052,29304
843,843,0,1079,29304
844,844,0,1106,61509
845,845,0,1133,61509
846,846,0,1160,61509
847,847,0,1187,61509
848,848,0,1214,61509
849,849,0,1241,25277
850,850,0,1268,25277
851,851,0,1295,25277
852,852,0,1322,25277
853,853,0,1349,25277
854,854,0,1376,21250
855,855,0,1403,21250
856,856,0,1430,21250
857,857,0,1457,21250
858,858,0,1484,21250
859,859,0,1511,46527
860,860,0,1538,46527
861,861,0,1565,46527
862,862,0,1592,46527
863,863,0,1619,46527
864,864,0,1646,2241
865,865,0,1673,2241
866,866,0,1700,2241
867,867,0,1727,2241
868,868,0,1754,2241
869,869,0,1781,48768
870,870,0,1808,48768
871,871,0,1835,48768
872,872,0,1862,48768
873,873,0,1889,48768
874,874,0,1916,51009
875,875,0,1943,51009
876,876,0,1970,51009
877,877,0,1997,51009
878,878,0,2024,51009
879,879,0,2051,34241
880,880,0,2078,34241
881,881,0,2105,34241
882,882,0,2132,34241
883,883,0,2159,34241
884,884,0,2186,19714
885,885,0,2213,19714
886,886,0,2240,19714
887,887,0,2267,19714
888,888,0,2294,19714
889,889,0,2321,53955
890,890,0,2348,53955
891,891,0,2378,53955
892,892,0,2402,53955
893,893,0,2429,53955
894,894,0,2456,8133
895,895,0,2484,8133
896,896,0,2511,8133
897,897,0,2537,8133
898,898,0,2564,8133
899,899,0,2591,62088
900,900,0,2618,62088
901,901,0,2645,62088
902,902,0,2672,62088
903,903,0,2699,62088
904,904,0,0,4685
905,905,0,26,4685
906,906,0,52,4685
907,907,0,80,4685
908,908,0,107,4685
909,909,0,134,1237
910,910,0,161,1237
911,911,0,189,1237
912,912,0,215,1237
913,913,0,243,1237
914,914,0,269,5922
915,915,0,297,5922
916,916,0,324,5922
917,917,0,350,5922
918,918,0,377,5922
919,919,0,404,7159
920,920,0,432,7159
921,921,0,459,7159
922,922,0,485,7159
923,923,0,513,7159
924,924,0,540,13081
925,925,0,567,13081
926,926,0,594,13081
927,927,0,620,13081
928,928,0,648,13081
929,929,0,674,20240
930,930,0,702,20240
931,931,0,729,20240
932,932,0,755,20240
933,933,0,783,20240
934,934,0,810,33321
935,935,0,837,33321
936,936,0,864,33321
937,937,0,891,33321
938,938,0,918,33321
939,939,0,945,53561
940,940,0,972,53561
941,941,0,999,53561
942,942,0,1026,53561
943,943,0,1053,53561
944,944,0,1080,21346
945,945,0,1107,21346
946,946,0,1134,21346
947,947,0,1161,21346
948,948,0,1188,21346
949,949,0,1215,9371
950,950,0,1242,9371
951,951,0,1269,9371
952,952,0,1296,9371
953,953,0,1323,9371
954,954,0,1350,30717
955,955,0,1377,30717
956,956,0,1404,30717
957,957,0,1431,30717
958,958,0,1458,30717
959,959,0,1485,40088
960,960,0,1512,40088
961,961,0,1539,40088
962,962,0,1566,40088
963,963,0,1593,40088
964,964,0,1620,5269
965,965,0,1647,5269
966,966,0,1674,5269
967,967,0,1701,5269
968,968,0,1728,5269
969,969,0,1755,45357
970,970,0,1782,45357
971,971,0,1809,45357
972,972,0,1836,45357
973,973,0,1863,45357
974,974,0,1890,50626
975,975,0,1917,50626
976,976,0,1944,50626
977,977,0,1971,50626
978,978,0,1998,50626
979,979,0,2025,30447
980,980,0,2052,30447
981,981,0,2079,30447
982,982,0,2106,30447
